Time Stamp,ID,Extended,Dir,Bus,LEN,D1,D2,D3,D4,D5,D6,D7,D8
127216066,0000077A,false,Rx,0,8,3F,00,61,20,1C,00,00,FF,
127220811,00000201,false,Rx,0,8,00,FE,FE,00,00,00,CB,00,
127221834,00000101,false,Rx,0,8,00,00,00,00,00,00,03,00,
127221835,000000FA,false,Rx,0,8,00,00,18,10,22,18,18,00,
127226911,00000766,false,Rx,0,8,18,04,00,00,00,03,00,00,
127227902,00000102,false,Rx,0,3,00,00,00,00,00,00,00,00,
127231838,000000FA,false,Rx,0,8,00,00,18,10,22,18,18,00,
828,000001BA,false,Rx,0,6,10,18,C0,4B,61,32,00,00,
5697,0000049A,false,Rx,0,7,00,AF,33,FA,DF,34,D0,00,
8690,00000741,false,Rx,0,6,00,00,00,00,00,00,00,00,
9704,00000201,false,Rx,0,8,00,FE,FE,00,00,00,CC,00,
10702,000000FA,false,Rx,0,8,00,00,18,10,22,18,18,00,
14760,00000386,false,Rx,0,6,02,15,AF,F4,B6,00,00,00,
19741,000000FA,false,Rx,0,8,00,00,18,10,22,18,18,00,
20757,000001BA,false,Rx,0,6,10,18,C0,4B,61,32,00,00,
28748,00000201,false,Rx,0,8,00,FE,FE,00,00,00,CD,00,
29767,00000101,false,Rx,0,8,00,00,00,00,00,00,03,00,
29768,000000FA,false,Rx,0,8,00,00,18,10,22,18,18,00,
34871,00000102,false,Rx,0,3,00,00,00,00,00,00,00,00,
39742,000000FA,false,Rx,0,8,00,00,18,10,22,18,18,00,
40735,000001BA,false,Rx,0,6,10,18,C0,4B,61,32,00,00,
48774,00000201,false,Rx,0,8,00,FE,FE,00,00,00,CE,00,
49777,000000FA,false,Rx,0,8,00,00,18,10,22,18,18,00,
59641,00000711,false,Rx,0,8,04,03,F1,F1,06,70,00,22,
60632,000000FA,false,Rx,0,8,00,00,18,10,22,18,18,00,
60633,000001BA,false,Rx,0,6,10,18,C0,4B,61,32,00,00,
68798,00000201,false,Rx,0,8,00,FE,FE,00,00,00,CF,00,
69773,00000101,false,Rx,0,8,00,00,00,00,00,00,03,00,
69774,000000FA,false,Rx,0,8,00,00,18,10,22,18,18,00,
75770,00000102,false,Rx,0,3,00,00,00,00,00,00,00,00,
79749,000000FA,false,Rx,0,8,00,00,18,10,22,18,18,00,
80739,000001BA,false,Rx,0,6,10,18,C0,4B,61,32,00,00,
84117,0000077A,false,Rx,0,8,3F,00,61,20,1C,00,00,FF,
88798,00000201,false,Rx,0,8,00,FE,FE,00,00,00,D0,00,
89791,000000FA,false,Rx,0,8,00,00,18,10,22,18,18,00,
94895,00000766,false,Rx,0,8,18,04,00,00,00,03,00,00,
99752,000000FA,false,Rx,0,8,00,00,18,10,22,18,18,00,
100742,000001BA,false,Rx,0,6,10,18,C0,4B,61,32,00,00,
105532,0000049A,false,Rx,0,7,00,AF,33,FA,DF,34,D0,00,
108770,00000741,false,Rx,0,6,00,00,00,00,00,00,00,00,
109773,00000201,false,Rx,0,8,00,FE,FE,00,00,00,D1,00,
109774,000000FA,false,Rx,0,8,00,00,18,10,22,18,18,00,
110794,00000101,false,Rx,0,8,00,00,00,00,00,00,03,00,
114785,00000386,false,Rx,0,6,02,15,AF,F4,B6,00,00,00,
116785,00000102,false,Rx,0,3,00,00,00,00,00,00,00,00,
119708,000000FA,false,Rx,0,8,00,00,18,10,22,18,18,00,
120734,000001BA,false,Rx,0,6,10,18,C0,4B,61,32,00,00,
128806,00000201,false,Rx,0,8,00,FE,FE,00,00,00,D2,00,
129796,000000FA,false,Rx,0,8,00,00,18,10,22,18,18,00,
139656,000000FA,false,Rx,0,8,00,00,18,10,22,18,18,00,
140677,000001BA,false,Rx,0,6,10,18,C0,4B,61,32,00,00,
148775,00000201,false,Rx,0,8,00,FE,FE,00,00,00,D3,00,
149827,00000101,false,Rx,0,8,00,00,00,00,00,00,03,00,
149828,000000FA,false,Rx,0,8,00,00,18,10,22,18,18,00,
157713,00000102,false,Rx,0,3,00,00,00,00,00,00,00,00,
159678,000000FA,false,Rx,0,8,00,00,18,10,22,18,18,00,
160705,000001BA,false,Rx,0,6,10,18,C0,4B,61,32,00,00,
167485,00000711,false,Rx,0,8,04,03,F1,F1,06,70,00,22,
168709,00000201,false,Rx,0,8,00,FE,FE,00,00,00,D4,00,
169708,000000FA,false,Rx,0,8,00,00,18,10,22,18,18,00,
179647,000000FA,false,Rx,0,8,00,00,18,10,22,18,18,00,
180656,000001BA,false,Rx,0,6,10,18,C0,4B,61,32,00,00,
183947,0000077A,false,Rx,0,8,3F,00,61,20,1C,00,00,FF,
188746,00000201,false,Rx,0,8,00,FE,FE,00,00,00,D5,00,
189738,00000101,false,Rx,0,8,00,00,00,00,00,00,03,00,
189739,000000FA,false,Rx,0,8,00,00,18,10,22,18,18,00,
194887,00000766,false,Rx,0,8,18,04,00,00,00,03,00,00,
199689,000000FA,false,Rx,0,8,00,00,18,10,22,18,18,00,
200677,000001BA,false,Rx,0,6,10,18,C0,4B,61,32,00,00,
200679,00000102,false,Rx,0,3,00,00,00,00,00,00,00,00,
205578,0000049A,false,Rx,0,7,00,AF,33,FA,DF,34,D0,00,
208682,00000741,false,Rx,0,6,00,00,00,00,00,00,00,00,
209677,00000201,false,Rx,0,8,00,FE,FE,00,00,00,D6,00,
209678,000000FA,false,Rx,0,8,00,00,18,10,22,18,18,00,
214819,00000386,false,Rx,0,6,02,15,AF,F4,B6,00,00,00,
219642,000000FA,false,Rx,0,8,00,00,18,10,22,18,18,00,
220659,000001BA,false,Rx,0,6,10,18,C0,4B,61,32,00,00,
228751,00000201,false,Rx,0,8,00,FE,FE,00,00,00,D7,00,
229750,00000101,false,Rx,0,8,00,00,00,00,00,00,03,00,
229752,000000FA,false,Rx,0,8,00,00,18,10,22,18,18,00,
239648,000000FA,false,Rx,0,8,00,00,18,10,22,18,18,00,
240655,000001BA,false,Rx,0,6,10,18,C0,4B,61,32,00,00,
240657,00000102,false,Rx,0,3,00,00,00,00,00,00,00,00,
248717,00000201,false,Rx,0,8,00,FE,FE,00,00,00,D8,00,
249706,000000FA,false,Rx,0,8,00,00,18,10,22,18,18,00,
259629,000000FA,false,Rx,0,8,00,00,18,10,22,18,18,00,
260616,000001BA,false,Rx,0,6,10,18,C0,4B,61,32,00,00,
268738,00000201,false,Rx,0,8,00,FE,FE,00,00,00,D9,00,
269741,00000101,false,Rx,0,8,00,00,00,00,00,00,03,00,
269742,000000FA,false,Rx,0,8,00,00,18,10,22,18,18,00,
272641,00000711,false,Rx,0,8,04,03,F1,F1,06,70,00,22,
279600,000000FA,false,Rx,0,8,00,00,18,10,22,18,18,00,
280633,000001BA,false,Rx,0,6,10,18,C0,4B,61,32,00,00,
281610,00000102,false,Rx,0,3,00,00,00,00,00,00,00,00,
283993,0000077A,false,Rx,0,8,3F,00,61,20,1C,00,00,FF,
288723,00000201,false,Rx,0,8,00,FE,FE,00,00,00,DA,00,
289708,000000FA,false,Rx,0,8,00,00,18,10,22,18,18,00,
294833,00000766,false,Rx,0,8,18,04,00,00,00,03,00,00,
299671,000000FA,false,Rx,0,8,00,00,18,10,22,18,18,00,
300653,000001BA,false,Rx,0,6,10,18,C0,4B,61,32,00,00,
305408,0000049A,false,Rx,0,7,00,AF,33,FA,DF,34,D0,00,
308709,00000741,false,Rx,0,6,00,00,00,00,00,00,00,00,
309703,00000201,false,Rx,0,8,00,FE,FE,00,00,00,DB,00,
309704,000000FA,false,Rx,0,8,00,00,18,10,22,18,18,00,
310715,00000101,false,Rx,0,8,00,00,00,00,00,00,03,00,
314724,00000386,false,Rx,0,6,02,15,AF,F4,B6,00,00,00,
319660,000000FA,false,Rx,0,8,00,00,18,10,22,18,18,00,
320619,000001BA,false,Rx,0,6,10,18,C0,4B,61,32,00,00,
323431,00000102,false,Rx,0,3,00,00,00,00,00,00,00,00,
328723,00000201,false,Rx,0,8,00,FE,FE,00,00,00,DC,00,
329748,000000FA,false,Rx,0,8,00,00,18,10,22,18,18,00,
339657,000000FA,false,Rx,0,8,00,00,18,10,22,18,18,00,
340659,000001BA,false,Rx,0,6,10,18,C0,4B,61,32,00,00,
348727,00000201,false,Rx,0,8,00,FE,FE,00,00,00,DD,00,
349739,00000101,false,Rx,0,8,00,00,00,00,00,00,03,00,
349739,000000FA,false,Rx,0,8,00,00,18,10,22,18,18,00,
359625,000000FA,false,Rx,0,8,00,00,18,10,22,18,18,00,
360639,000001BA,false,Rx,0,6,10,18,C0,4B,61,32,00,00,
362545,00000102,false,Rx,0,3,00,00,00,00,00,00,00,00,
368715,00000201,false,Rx,0,8,00,FE,FE,00,00,00,DE,00,
369706,000000FA,false,Rx,0,8,00,00,18,10,22,18,18,00,
379147,00000711,false,Rx,0,8,04,03,F1,F1,06,70,00,22,
380138,000000FA,false,Rx,0,8,00,00,18,10,22,18,18,00,
380139,000001BA,false,Rx,0,6,10,18,C0,4B,61,32,00,00,
383808,0000077A,false,Rx,0,8,3F,00,61,20,1C,00,00,FF,
388719,00000201,false,Rx,0,8,00,FE,FE,00,00,00,DF,00,
389737,00000101,false,Rx,0,8,00,00,00,00,00,00,03,00,
389738,000000FA,false,Rx,0,8,00,00,18,10,22,18,18,00,
394809,00000766,false,Rx,0,8,18,04,00,00,00,03,00,00,
399589,000000FA,false,Rx,0,8,00,00,18,10,22,18,18,00,
400663,000001BA,false,Rx,0,6,10,18,C0,4B,61,32,00,00,
405457,0000049A,false,Rx,0,7,00,AF,33,FA,DF,34,D0,00,
406475,00000102,false,Rx,0,3,00,00,00,00,00,00,00,00,
408684,00000741,false,Rx,0,6,00,00,00,00,00,00,00,00,
409675,00000201,false,Rx,0,8,00,FE,FE,00,00,00,E0,00,
409676,000000FA,false,Rx,0,8,00,00,18,10,22,18,18,00,
414734,00000386,false,Rx,0,6,02,15,AF,F4,B6,00,00,00,
419533,000000FA,false,Rx,0,8,00,00,18,10,22,18,18,00,
420556,000001BA,false,Rx,0,6,10,18,C0,4B,61,32,00,00,
428733,00000201,false,Rx,0,8,00,FE,FE,00,00,00,E1,00,
429717,00000101,false,Rx,0,8,00,00,00,00,00,00,03,00,
429718,000000FA,false,Rx,0,8,00,00,18,10,22,18,18,00,
439525,000000FA,false,Rx,0,8,00,00,18,10,22,18,18,00,
440527,000001BA,false,Rx,0,6,10,18,C0,4B,61,32,00,00,
444763,00000102,false,Rx,0,3,00,00,00,00,00,00,00,00,
448710,00000201,false,Rx,0,8,00,FE,FE,00,00,00,E2,00,
449705,000000FA,false,Rx,0,8,00,00,18,10,22,18,18,00,
459524,000000FA,false,Rx,0,8,00,00,18,10,22,18,18,00,
460529,000001BA,false,Rx,0,6,10,18,C0,4B,61,32,00,00,
468714,00000201,false,Rx,0,8,00,FE,FE,00,00,00,E3,00,
469708,00000101,false,Rx,0,8,00,00,00,00,00,00,03,00,
469709,000000FA,false,Rx,0,8,00,00,18,10,22,18,18,00,
479517,000000FA,false,Rx,0,8,00,00,18,10,22,18,18,00,
480507,000001BA,false,Rx,0,6,10,18,C0,4B,61,32,00,00,
483918,0000077A,false,Rx,0,8,3F,00,61,20,1C,00,00,FF,
485373,00000102,false,Rx,0,3,00,00,00,00,00,00,00,00,
486942,00000711,false,Rx,0,8,04,03,F1,F1,06,70,00,22,
488679,00000201,false,Rx,0,8,00,FE,FE,00,00,00,E4,00,
489705,000000FA,false,Rx,0,8,00,00,18,10,22,18,18,00,
494835,00000766,false,Rx,0,8,18,04,00,00,00,03,00,00,
495845,0000069F,false,Rx,0,4,89,55,10,0F,00,00,00,00,
499521,000000FA,false,Rx,0,8,00,00,18,10,22,18,18,00,
500526,000001BA,false,Rx,0,6,10,18,C0,4B,61,32,00,00,
505359,0000049A,false,Rx,0,7,00,AF,33,FA,DF,34,D0,00,
508660,00000741,false,Rx,0,6,00,00,00,00,00,00,00,00,
509657,00000201,false,Rx,0,8,00,FE,FE,00,00,00,E5,00,
509658,000000FA,false,Rx,0,8,00,00,18,10,22,18,18,00,
510675,00000101,false,Rx,0,8,00,00,00,00,00,00,03,00,
514714,00000386,false,Rx,0,6,02,15,AF,F4,B6,00,00,00,
519482,000000FA,false,Rx,0,8,00,00,18,10,22,18,18,00,
520489,000001BA,false,Rx,0,6,10,18,C0,4B,61,32,00,00,
526744,00000102,false,Rx,0,3,00,00,00,00,00,00,00,00,
528678,00000201,false,Rx,0,8,00,FE,FE,00,00,00,E6,00,
529703,000000FA,false,Rx,0,8,00,00,18,10,22,18,18,00,
539465,000000FA,false,Rx,0,8,00,00,18,10,22,18,18,00,
540481,000001BA,false,Rx,0,6,10,18,C0,4B,61,32,00,00,
548788,00000201,false,Rx,0,8,00,FE,FE,00,00,00,E7,00,
549745,00000101,false,Rx,0,8,00,00,00,00,00,00,03,00,
549746,000000FA,false,Rx,0,8,00,00,18,10,22,18,18,00,
559436,000000FA,false,Rx,0,8,00,00,18,10,22,18,18,00,
560457,000001BA,false,Rx,0,6,10,18,C0,4B,61,32,00,00,
567946,00000102,false,Rx,0,3,00,00,00,00,00,00,00,00,
568966,00000201,false,Rx,0,8,00,FE,FE,00,00,00,E8,00,
569978,000000FA,false,Rx,0,8,00,00,18,10,22,18,18,00,
579437,000000FA,false,Rx,0,8,00,00,18,10,22,18,18,00,
580458,000001BA,false,Rx,0,6,10,18,C0,4B,61,32,00,00,
583730,0000077A,false,Rx,0,8,3F,00,61,20,1C,00,00,FF,
588761,00000201,false,Rx,0,8,00,FE,FE,00,00,00,E9,00,
589784,00000101,false,Rx,0,8,00,00,00,00,00,00,03,00,
589786,000000FA,false,Rx,0,8,00,00,18,10,22,18,18,00,
592434,00000711,false,Rx,0,8,04,03,F1,F1,06,70,00,22,
594779,00000766,false,Rx,0,8,18,04,00,00,00,03,00,00,
599461,000000FA,false,Rx,0,8,00,00,18,10,22,18,18,00,
600473,000001BA,false,Rx,0,6,10,18,C0,4B,61,32,00,00,
605305,0000049A,false,Rx,0,7,00,AF,33,FA,DF,34,D0,00,
608642,00000741,false,Rx,0,6,00,00,00,00,00,00,00,00,
609661,00000102,false,Rx,0,3,00,00,00,00,00,00,00,00,
609662,00000201,false,Rx,0,8,00,FE,FE,00,00,00,EA,00,
610690,000000FA,false,Rx,0,8,00,00,18,10,22,18,18,00,
614712,00000386,false,Rx,0,6,02,15,AF,F4,B6,00,00,00,
619431,000000FA,false,Rx,0,8,00,00,18,10,22,18,18,00,
620456,000001BA,false,Rx,0,6,10,18,C0,4B,61,32,00,00,
628738,00000201,false,Rx,0,8,00,FE,FE,00,00,00,EB,00,
629742,00000101,false,Rx,0,8,00,00,00,00,00,00,03,00,
629744,000000FA,false,Rx,0,8,00,00,18,10,22,18,18,00,
639414,000000FA,false,Rx,0,8,00,00,18,10,22,18,18,00,
640428,000001BA,false,Rx,0,6,10,18,C0,4B,61,32,00,00,
648668,00000201,false,Rx,0,8,00,FE,FE,00,00,00,EC,00,
649707,000000FA,false,Rx,0,8,00,00,18,10,22,18,18,00,
650676,00000102,false,Rx,0,3,00,00,00,00,00,00,00,00,
659415,000000FA,false,Rx,0,8,00,00,18,10,22,18,18,00,
660424,000001BA,false,Rx,0,6,10,18,C0,4B,61,32,00,00,
668716,00000201,false,Rx,0,8,00,FE,FE,00,00,00,ED,00,
669708,00000101,false,Rx,0,8,00,00,00,00,00,00,03,00,
669710,000000FA,false,Rx,0,8,00,00,18,10,22,18,18,00,
679454,000000FA,false,Rx,0,8,00,00,18,10,22,18,18,00,
680430,000001BA,false,Rx,0,6,10,18,C0,4B,61,32,00,00,
683791,0000077A,false,Rx,0,8,3F,00,61,20,1C,00,00,FF,
688694,00000201,false,Rx,0,8,00,FE,FE,00,00,00,EE,00,
689678,000000FA,false,Rx,0,8,00,00,18,10,22,18,18,00,
690866,00000102,false,Rx,0,3,00,00,00,00,00,00,00,00,
694805,00000766,false,Rx,0,8,18,04,00,00,00,03,00,00,
699466,000000FA,false,Rx,0,8,00,00,18,10,22,18,18,00,
700460,000001BA,false,Rx,0,6,10,18,C0,4B,61,32,00,00,
700461,00000711,false,Rx,0,8,04,03,F1,F1,06,70,00,22,
705179,0000049A,false,Rx,0,7,00,AF,33,FA,DF,34,D0,00,
706175,000007DF,false,Rx,0,8,02,01,0D,AA,AA,AA,AA,AA,
708639,00000741,false,Rx,0,6,00,00,00,00,00,00,00,00,
709633,00000201,false,Rx,0,8,00,FE,FE,00,00,00,EF,00,
709634,000000FA,false,Rx,0,8,00,00,18,10,22,18,18,00,
710655,00000101,false,Rx,0,8,00,00,00,00,00,00,03,00,
710657,000007E8,false,Rx,0,8,03,41,0D,00,00,00,00,00,
714711,00000386,false,Rx,0,6,02,15,AF,F4,B6,00,00,00,
719370,000000FA,false,Rx,0,8,00,00,18,10,22,18,18,00,
720384,000001BA,false,Rx,0,6,10,18,C0,4B,61,32,00,00,
723009,000007DF,false,Rx,0,8,02,01,01,AA,AA,AA,AA,AA,
728684,00000201,false,Rx,0,8,00,FE,FE,00,00,00,F0,00,
729705,000000FA,false,Rx,0,8,00,00,18,10,22,18,18,00,
730706,000007E8,false,Rx,0,8,06,41,01,00,06,80,00,00,
731703,00000102,false,Rx,0,3,00,00,00,00,00,00,00,00,
732744,000007D1,false,Rx,0,7,03,F1,F1,00,00,00,FF,00,
735183,000007DF,false,Rx,0,8,02,01,0C,AA,AA,AA,AA,AA,
739329,000000FA,false,Rx,0,8,00,00,18,10,22,18,18,00,
740353,000007E8,false,Rx,0,8,04,41,0C,00,00,00,00,00,
740354,000001BA,false,Rx,0,6,10,18,C0,4B,61,32,00,00,
748762,00000201,false,Rx,0,8,00,FE,FE,00,00,00,F1,00,
749722,00000101,false,Rx,0,8,00,00,00,00,00,00,03,00,
749723,000000FA,false,Rx,0,8,00,00,18,10,22,18,18,00,
759362,000000FA,false,Rx,0,8,00,00,18,10,22,18,18,00,
760369,000001BA,false,Rx,0,6,10,18,C0,4B,61,32,00,00,
768710,00000201,false,Rx,0,8,00,FE,FE,00,00,00,F2,00,
769708,000000FA,false,Rx,0,8,00,00,18,10,22,18,18,00,
772909,00000102,false,Rx,0,3,00,00,00,00,00,00,00,00,
779361,000000FA,false,Rx,0,8,00,00,18,10,22,18,18,00,
780364,000001BA,false,Rx,0,6,10,18,C0,4B,61,32,00,00,
783627,0000077A,false,Rx,0,8,3F,00,61,20,1C,00,00,FF,
788708,00000201,false,Rx,0,8,00,FE,FE,00,00,00,F3,00,
789728,00000101,false,Rx,0,8,00,00,00,00,00,00,03,00,
789730,000000FA,false,Rx,0,8,00,00,18,10,22,18,18,00,
794841,00000766,false,Rx,0,8,18,04,00,00,00,03,00,00,
799368,000000FA,false,Rx,0,8,00,00,18,10,22,18,18,00,
800385,000001BA,false,Rx,0,6,10,18,C0,4B,61,32,00,00,
805268,0000049A,false,Rx,0,7,00,AF,33,FA,DF,34,D0,00,
806265,00000711,false,Rx,0,8,04,03,F1,F1,06,70,00,22,
808619,00000741,false,Rx,0,6,00,00,00,00,00,00,00,00,
809614,00000201,false,Rx,0,8,00,FE,FE,00,00,00,F4,00,
809616,000000FA,false,Rx,0,8,00,00,18,10,22,18,18,00,
812957,00000102,false,Rx,0,3,00,00,00,00,00,00,00,00,
814707,00000386,false,Rx,0,6,02,15,AF,F4,B6,00,00,00,
819350,000000FA,false,Rx,0,8,00,00,18,10,22,18,18,00,
820365,000001BA,false,Rx,0,6,10,18,C0,4B,61,32,00,00,
828689,00000201,false,Rx,0,8,00,FE,FE,00,00,00,F5,00,
829678,00000101,false,Rx,0,8,00,00,00,00,00,00,03,00,
829679,000000FA,false,Rx,0,8,00,00,18,10,22,18,18,00,
839313,000000FA,false,Rx,0,8,00,00,18,10,22,18,18,00,
840332,000001BA,false,Rx,0,6,10,18,C0,4B,61,32,00,00,
848669,00000201,false,Rx,0,8,00,FE,FE,00,00,00,F6,00,
849659,000000FA,false,Rx,0,8,00,00,18,10,22,18,18,00,
854372,00000102,false,Rx,0,3,00,00,00,00,00,00,00,00,
859292,000000FA,false,Rx,0,8,00,00,18,10,22,18,18,00,
860304,000001BA,false,Rx,0,6,10,18,C0,4B,61,32,00,00,
868715,00000201,false,Rx,0,8,00,FE,FE,00,00,00,F7,00,
869716,00000101,false,Rx,0,8,00,00,00,00,00,00,03,00,
869717,000000FA,false,Rx,0,8,00,00,18,10,22,18,18,00,
879292,000000FA,false,Rx,0,8,00,00,18,10,22,18,18,00,
880306,000001BA,false,Rx,0,6,10,18,C0,4B,61,32,00,00,
883668,0000077A,false,Rx,0,8,3F,00,61,20,1C,00,00,FF,
888640,00000201,false,Rx,0,8,00,FE,FE,00,00,00,F8,00,
889657,000000FA,false,Rx,0,8,00,00,18,10,22,18,18,00,
894819,00000766,false,Rx,0,8,18,04,00,00,00,03,00,00,
895840,00000102,false,Rx,0,3,00,00,00,00,00,00,00,00,
899289,000000FA,false,Rx,0,8,00,00,18,10,22,18,18,00,
900300,000001BA,false,Rx,0,6,10,18,C0,4B,61,32,00,00,
905123,0000049A,false,Rx,0,7,00,AF,33,FA,DF,34,D0,00,
908612,00000741,false,Rx,0,6,00,00,00,00,00,00,00,00,
909616,00000201,false,Rx,0,8,00,FE,FE,00,00,00,F9,00,
909617,000000FA,false,Rx,0,8,00,00,18,10,22,18,18,00,
910616,00000101,false,Rx,0,8,00,00,00,00,00,00,03,00,
911636,00000711,false,Rx,0,8,04,03,F1,F1,06,70,00,22,
914685,00000386,false,Rx,0,6,02,15,AF,F4,B6,00,00,00,
919286,000000FA,false,Rx,0,8,00,00,18,10,22,18,18,00,
920285,000001BA,false,Rx,0,6,10,18,C0,4B,61,32,00,00,
928644,00000201,false,Rx,0,8,00,FE,FE,00,00,00,FA,00,
929658,000000FA,false,Rx,0,8,00,00,18,10,22,18,18,00,
936022,00000102,false,Rx,0,3,00,00,00,00,00,00,00,00,
939242,000000FA,false,Rx,0,8,00,00,18,10,22,18,18,00,
940263,000001BA,false,Rx,0,6,10,18,C0,4B,61,32,00,00,
948707,00000201,false,Rx,0,8,00,FE,FE,00,00,00,FB,00,
949702,00000101,false,Rx,0,8,00,00,00,00,00,00,03,00,
949704,000000FA,false,Rx,0,8,00,00,18,10,22,18,18,00,
959266,000000FA,false,Rx,0,8,00,00,18,10,22,18,18,00,
960258,000001BA,false,Rx,0,6,10,18,C0,4B,61,32,00,00,
968679,00000201,false,Rx,0,8,00,FE,FE,00,00,00,FC,00,
969673,000000FA,false,Rx,0,8,00,00,18,10,22,18,18,00,
978742,00000102,false,Rx,0,3,00,00,00,00,00,00,00,00,
979712,000000FA,false,Rx,0,8,00,00,18,10,22,18,18,00,
979713,000001BA,false,Rx,0,6,10,18,C0,4B,61,32,00,00,
983484,0000077A,false,Rx,0,8,3F,00,61,20,1C,00,00,FF,
988680,00000201,false,Rx,0,8,00,FE,FE,00,00,00,FD,00,
989672,00000101,false,Rx,0,8,00,00,00,00,00,00,03,00,
989673,000000FA,false,Rx,0,8,00,00,18,10,22,18,18,00,
994807,00000766,false,Rx,0,8,18,04,00,00,00,03,00,00,
999277,000000FA,false,Rx,0,8,00,00,18,10,22,18,18,00,
1000285,000001BA,false,Rx,0,6,10,18,C0,4B,61,32,00,00,
1005113,0000049A,false,Rx,0,7,00,AF,33,FA,DF,34,D0,00,
1008582,00000741,false,Rx,0,6,00,00,00,00,00,00,00,00,
1009585,00000201,false,Rx,0,8,00,FE,FE,00,00,00,FE,00,
1009586,000000FA,false,Rx,0,8,00,00,18,10,22,18,18,00,
1014661,00000386,false,Rx,0,6,02,15,AF,F4,B6,00,00,00,
1018204,00000102,false,Rx,0,3,00,00,00,00,00,00,00,00,
1019213,000000FA,false,Rx,0,8,00,00,18,10,22,18,18,00,
1020199,00000711,false,Rx,0,8,04,03,F1,F1,06,70,00,22,
1020199,000001BA,false,Rx,0,6,10,18,C0,4B,61,32,00,00,
1028667,00000201,false,Rx,0,8,00,FE,FE,00,00,00,FF,00,
1029692,00000101,false,Rx,0,8,00,00,00,00,00,00,03,00,
1029692,000000FA,false,Rx,0,8,00,00,18,10,22,18,18,00,
1039181,000000FA,false,Rx,0,8,00,00,18,10,22,18,18,00,
1040202,000001BA,false,Rx,0,6,10,18,C0,4B,61,32,00,00,
1048711,00000201,false,Rx,0,8,00,FE,FE,00,00,00,00,00,
1049677,000000FA,false,Rx,0,8,00,00,18,10,22,18,18,00,
1059163,000000FA,false,Rx,0,8,00,00,18,10,22,18,18,00,
1060180,00000102,false,Rx,0,3,00,00,00,00,00,00,00,00,
1060181,000001BA,false,Rx,0,6,10,18,C0,4B,61,32,00,00,
1068727,00000201,false,Rx,0,8,00,FE,FE,00,00,00,01,00,
1069675,000000FA,false,Rx,0,8,00,00,18,10,22,18,18,00,
1069676,00000101,false,Rx,0,8,00,00,00,00,00,00,03,00,
1079198,000000FA,false,Rx,0,8,00,00,18,10,22,18,18,00,
1080225,000001BA,false,Rx,0,6,10,18,C0,4B,61,32,00,00,
1083592,0000077A,false,Rx,0,8,3F,00,61,20,1C,00,00,FF,
1088673,00000201,false,Rx,0,8,00,FE,FE,00,00,00,02,00,
1089655,000000FA,false,Rx,0,8,00,00,18,10,22,18,18,00,
1094744,00000766,false,Rx,0,8,18,04,00,00,00,03,00,00,
1099181,000000FA,false,Rx,0,8,00,00,18,10,22,18,18,00,
1100205,000001BA,false,Rx,0,6,10,18,C0,4B,61,32,00,00,
1101205,00000102,false,Rx,0,3,00,00,00,00,00,00,00,00,
1104977,0000049A,false,Rx,0,7,00,AF,33,FA,DF,34,D0,00,
1108607,00000741,false,Rx,0,6,00,00,00,00,00,00,00,00,
1109615,00000201,false,Rx,0,8,00,FE,FE,00,00,00,03,00,
1109616,000000FA,false,Rx,0,8,00,00,18,10,22,18,18,00,
1110651,00000101,false,Rx,0,8,00,00,00,00,00,00,03,00,
1114694,00000386,false,Rx,0,6,02,15,AF,F4,B6,00,00,00,
1119162,000000FA,false,Rx,0,8,00,00,18,10,22,18,18,00,
1120177,000001BA,false,Rx,0,6,10,18,C0,4B,61,32,00,00,
1124619,00000711,false,Rx,0,8,04,03,F1,F1,06,70,00,22,
1128654,00000201,false,Rx,0,8,00,FE,FE,00,00,00,04,00,
1129672,000000FA,false,Rx,0,8,00,00,18,10,22,18,18,00,
1139148,000000FA,false,Rx,0,8,00,00,18,10,22,18,18,00,
1140172,000001BA,false,Rx,0,6,10,18,C0,4B,61,32,00,00,
1141173,00000102,false,Rx,0,3,00,00,00,00,00,00,00,00,
1148692,00000201,false,Rx,0,8,00,FE,FE,00,00,00,05,00,
1149696,000000FA,false,Rx,0,8,00,00,18,10,22,18,18,00,
1149697,00000101,false,Rx,0,8,00,00,00,00,00,00,03,00,
1159155,000000FA,false,Rx,0,8,00,00,18,10,22,18,18,00,
1160171,000001BA,false,Rx,0,6,10,18,C0,4B,61,32,00,00,
1168660,00000201,false,Rx,0,8,00,FE,FE,00,00,00,06,00,
1169678,000000FA,false,Rx,0,8,00,00,18,10,22,18,18,00,
1179129,000000FA,false,Rx,0,8,00,00,18,10,22,18,18,00,
1180160,000001BA,false,Rx,0,6,10,18,C0,4B,61,32,00,00,
1183415,0000077A,false,Rx,0,8,3F,00,61,20,1C,00,00,FF,
1184446,00000102,false,Rx,0,3,00,00,00,00,00,00,00,00,
1188708,00000201,false,Rx,0,8,00,FE,FE,00,00,00,07,00,
1189741,000000FA,false,Rx,0,8,00,00,18,10,22,18,18,00,
1189742,00000101,false,Rx,0,8,00,00,00,00,00,00,03,00,
1194784,00000766,false,Rx,0,8,18,04,00,00,00,03,00,00,
1199206,000000FA,false,Rx,0,8,00,00,18,10,22,18,18,00,
1200218,000001BA,false,Rx,0,6,10,18,C0,4B,61,32,00,00,
1205095,0000049A,false,Rx,0,7,00,AF,33,FA,DF,34,D0,00,
1208587,00000741,false,Rx,0,6,00,00,00,00,00,00,00,00,
1209608,00000201,false,Rx,0,8,00,FE,FE,00,00,00,08,00,
1209609,000000FA,false,Rx,0,8,00,00,18,10,22,18,18,00,
1214712,00000386,false,Rx,0,6,02,15,AF,F4,B6,00,00,00,
1219162,000000FA,false,Rx,0,8,00,00,18,10,22,18,18,00,
1220182,000001BA,false,Rx,0,6,10,18,C0,4B,61,32,00,00,
1224004,00000102,false,Rx,0,3,00,00,00,00,00,00,00,00,
1228704,00000201,false,Rx,0,8,00,FE,FE,00,00,00,09,00,
1229716,000000FA,false,Rx,0,8,00,00,18,10,22,18,18,00,
1229718,00000101,false,Rx,0,8,00,00,00,00,00,00,03,00,
1232899,00000711,false,Rx,0,8,04,03,F1,F1,06,70,00,22,
1239128,000000FA,false,Rx,0,8,00,00,18,10,22,18,18,00,
1240157,000001BA,false,Rx,0,6,10,18,C0,4B,61,32,00,00,
1248664,00000201,false,Rx,0,8,00,FE,FE,00,00,00,0A,00,
1249655,000000FA,false,Rx,0,8,00,00,18,10,22,18,18,00,
1259149,000000FA,false,Rx,0,8,00,00,18,10,22,18,18,00,
1260138,000001BA,false,Rx,0,6,10,18,C0,4B,61,32,00,00,
1263798,00000102,false,Rx,0,3,00,00,00,00,00,00,00,00,
1268717,00000201,false,Rx,0,8,00,FE,FE,00,00,00,0B,00,
1269690,000000FA,false,Rx,0,8,00,00,18,10,22,18,18,00,
1269691,00000101,false,Rx,0,8,00,00,00,00,00,00,03,00,
1279113,000000FA,false,Rx,0,8,00,00,18,10,22,18,18,00,
1280106,000001BA,false,Rx,0,6,10,18,C0,4B,61,32,00,00,
1283495,0000077A,false,Rx,0,8,3F,00,61,20,1C,00,00,FF,
1288651,00000201,false,Rx,0,8,00,FE,FE,00,00,00,0C,00,
1289674,000000FA,false,Rx,0,8,00,00,18,10,22,18,18,00,
1294777,00000766,false,Rx,0,8,18,04,00,00,00,03,00,00,
1299126,000000FA,false,Rx,0,8,00,00,18,10,22,18,18,00,
1300138,000001BA,false,Rx,0,6,10,18,C0,4B,61,32,00,00,
1304609,00000102,false,Rx,0,3,00,00,00,00,00,00,00,00,
1305635,0000049A,false,Rx,0,7,00,AF,33,FA,DF,34,D0,00,
1308639,00000741,false,Rx,0,6,00,00,00,00,00,00,00,00,
1309647,000000FA,false,Rx,0,8,00,00,18,10,22,18,18,00,
1309649,00000201,false,Rx,0,8,00,FE,FE,00,00,00,0D,00,
1310655,00000101,false,Rx,0,8,00,00,00,00,00,00,03,00,
1314707,00000386,false,Rx,0,6,02,15,AF,F4,B6,00,00,00,
1319064,000000FA,false,Rx,0,8,00,00,18,10,22,18,18,00,
1320137,000001BA,false,Rx,0,6,10,18,C0,4B,61,32,00,00,
1328663,00000201,false,Rx,0,8,00,FE,FE,00,00,00,0E,00,
1329631,000000FA,false,Rx,0,8,00,00,18,10,22,18,18,00,
1337642,00000711,false,Rx,0,8,04,03,F1,F1,06,70,00,22,
1339022,000000FA,false,Rx,0,8,00,00,18,10,22,18,18,00,
1340069,000001BA,false,Rx,0,6,10,18,C0,4B,61,32,00,00,
1345532,00000102,false,Rx,0,3,00,00,00,00,00,00,00,00,
1348657,00000201,false,Rx,0,8,00,FE,FE,00,00,00,0F,00,
1349656,000000FA,false,Rx,0,8,00,00,18,10,22,18,18,00,
1349657,00000101,false,Rx,0,8,00,00,00,00,00,00,03,00,
1359063,000000FA,false,Rx,0,8,00,00,18,10,22,18,18,00,
1360057,000001BA,false,Rx,0,6,10,18,C0,4B,61,32,00,00,
1368673,00000201,false,Rx,0,8,00,FE,FE,00,00,00,10,00,
1369692,000000FA,false,Rx,0,8,00,00,18,10,22,18,18,00,
1379038,000000FA,false,Rx,0,8,00,00,18,10,22,18,18,00,
1380059,000001BA,false,Rx,0,6,10,18,C0,4B,61,32,00,00,
1383323,0000077A,false,Rx,0,8,3F,00,61,20,1C,00,00,FF,
1386533,00000102,false,Rx,0,3,00,00,00,00,00,00,00,00,
1388714,00000201,false,Rx,0,8,00,FE,FE,00,00,00,11,00,
1389708,000000FA,false,Rx,0,8,00,00,18,10,22,18,18,00,
1389709,00000101,false,Rx,0,8,00,00,00,00,00,00,03,00,
1394806,00000766,false,Rx,0,8,18,04,00,00,00,03,00,00,
1399050,000000FA,false,Rx,0,8,00,00,18,10,22,18,18,00,
1400100,000001BA,false,Rx,0,6,10,18,C0,4B,61,32,00,00,
1404962,0000049A,false,Rx,0,7,00,AF,33,FA,DF,34,D0,00,
1408616,00000741,false,Rx,0,6,00,00,00,00,00,00,00,00,
1409609,000000FA,false,Rx,0,8,00,00,18,10,22,18,18,00,
1409610,00000201,false,Rx,0,8,00,FE,FE,00,00,00,12,00,
1414678,00000386,false,Rx,0,6,02,15,AF,F4,B6,00,00,00,
1419056,000000FA,false,Rx,0,8,00,00,18,10,22,18,18,00,
1420069,000001BA,false,Rx,0,6,10,18,C0,4B,61,32,00,00,
1428687,00000201,false,Rx,0,8,00,FE,FE,00,00,00,13,00,
1429701,000000FA,false,Rx,0,8,00,00,18,10,22,18,18,00,
1429702,00000101,false,Rx,0,8,00,00,00,00,00,00,03,00,
1430699,00000102,false,Rx,0,3,00,00,00,00,00,00,00,00,
1439059,000000FA,false,Rx,0,8,00,00,18,10,22,18,18,00,
1440015,000001BA,false,Rx,0,6,10,18,C0,4B,61,32,00,00,
1444673,00000711,false,Rx,0,8,04,03,F1,F1,06,70,00,22,
1448615,00000201,false,Rx,0,8,00,FE,FE,00,00,00,14,00,
1449638,000000FA,false,Rx,0,8,00,00,18,10,22,18,18,00,
1459049,000000FA,false,Rx,0,8,00,00,18,10,22,18,18,00,
1460065,000001BA,false,Rx,0,6,10,18,C0,4B,61,32,00,00,
1468668,00000201,false,Rx,0,8,00,FE,FE,00,00,00,15,00,
1469658,000000FA,false,Rx,0,8,00,00,18,10,22,18,18,00,
1469660,00000101,false,Rx,0,8,00,00,00,00,00,00,03,00,
1470679,00000102,false,Rx,0,3,00,00,00,00,00,00,00,00,
1479071,000000FA,false,Rx,0,8,00,00,18,10,22,18,18,00,
1480070,000001BA,false,Rx,0,6,10,18,C0,4B,61,32,00,00,
1483439,0000077A,false,Rx,0,8,3F,00,61,20,1C,00,00,FF,
1488661,00000201,false,Rx,0,8,00,FE,FE,00,00,00,16,00,
1489670,000000FA,false,Rx,0,8,00,00,18,10,22,18,18,00,
1494745,00000766,false,Rx,0,8,18,04,00,00,00,03,00,00,
1495764,0000069F,false,Rx,0,4,89,55,10,0F,00,00,00,00,
1499060,000000FA,false,Rx,0,8,00,00,18,10,22,18,18,00,
1500050,000001BA,false,Rx,0,6,10,18,C0,4B,61,32,00,00,
1504780,0000049A,false,Rx,0,7,00,AF,33,FA,DF,34,D0,00,
1508609,00000741,false,Rx,0,6,00,00,00,00,00,00,00,00,
1509629,000000FA,false,Rx,0,8,00,00,18,10,22,18,18,00,
1509630,00000201,false,Rx,0,8,00,FE,FE,00,00,00,17,00,
1510616,00000101,false,Rx,0,8,00,00,00,00,00,00,03,00,
1510618,00000102,false,Rx,0,3,00,00,00,00,00,00,00,00,
1514662,00000386,false,Rx,0,6,02,15,AF,F4,B6,00,00,00,
1519009,000000FA,false,Rx,0,8,00,00,18,10,22,18,18,00,
1519998,000001BA,false,Rx,0,6,10,18,C0,4B,61,32,00,00,
1528644,00000201,false,Rx,0,8,00,FE,FE,00,00,00,18,00,
1529649,000000FA,false,Rx,0,8,00,00,18,10,22,18,18,00,
1538949,000000FA,false,Rx,0,8,00,00,18,10,22,18,18,00,
1539968,000001BA,false,Rx,0,6,10,18,C0,4B,61,32,00,00,
1548658,00000201,false,Rx,0,8,00,FE,FE,00,00,00,19,00,
1549639,000000FA,false,Rx,0,8,00,00,18,10,22,18,18,00,
1549640,00000101,false,Rx,0,8,00,00,00,00,00,00,03,00,
1550673,00000102,false,Rx,0,3,00,00,00,00,00,00,00,00,
1552120,00000711,false,Rx,0,8,04,03,F1,F1,06,70,00,22,
1558975,000000FA,false,Rx,0,8,00,00,18,10,22,18,18,00,
1559981,000001BA,false,Rx,0,6,10,18,C0,4B,61,32,00,00,
1568596,00000201,false,Rx,0,8,00,FE,FE,00,00,00,1A,00,
1569625,000000FA,false,Rx,0,8,00,00,18,10,22,18,18,00,
1578927,000000FA,false,Rx,0,8,00,00,18,10,22,18,18,00,
1579948,000001BA,false,Rx,0,6,10,18,C0,4B,61,32,00,00,
1583224,0000077A,false,Rx,0,8,3F,00,61,20,1C,00,00,FF,
1588679,00000201,false,Rx,0,8,00,FE,FE,00,00,00,1B,00,
1589686,000000FA,false,Rx,0,8,00,00,18,10,22,18,18,00,
1589687,00000101,false,Rx,0,8,00,00,00,00,00,00,03,00,
1593900,00000102,false,Rx,0,3,00,00,00,00,00,00,00,00,
1594918,00000766,false,Rx,0,8,18,04,00,00,00,03,00,00,
1598972,000000FA,false,Rx,0,8,00,00,18,10,22,18,18,00,
1600002,000001BA,false,Rx,0,6,10,18,C0,4B,61,32,00,00,
1604893,0000049A,false,Rx,0,7,00,AF,33,FA,DF,34,D0,00,
1608595,00000741,false,Rx,0,6,00,00,00,00,00,00,00,00,
1609599,000000FA,false,Rx,0,8,00,00,18,10,22,18,18,00,
1609600,00000201,false,Rx,0,8,00,FE,FE,00,00,00,1C,00,
1614618,00000386,false,Rx,0,6,02,15,AF,F4,B6,00,00,00,
1618910,000000FA,false,Rx,0,8,00,00,18,10,22,18,18,00,
1619921,000001BA,false,Rx,0,6,10,18,C0,4B,61,32,00,00,
1628673,00000201,false,Rx,0,8,00,FE,FE,00,00,00,1D,00,
1629665,000000FA,false,Rx,0,8,00,00,18,10,22,18,18,00,
1629666,00000101,false,Rx,0,8,00,00,00,00,00,00,03,00,
1633104,00000102,false,Rx,0,3,00,00,00,00,00,00,00,00,
1638923,000000FA,false,Rx,0,8,00,00,18,10,22,18,18,00,
1639975,000001BA,false,Rx,0,6,10,18,C0,4B,61,32,00,00,
1648633,00000201,false,Rx,0,8,00,FE,FE,00,00,00,1E,00,
1649617,000000FA,false,Rx,0,8,00,00,18,10,22,18,18,00,
1657093,00000711,false,Rx,0,8,04,03,F1,F1,06,70,00,22,
1658901,000000FA,false,Rx,0,8,00,00,18,10,22,18,18,00,
1659920,000001BA,false,Rx,0,6,10,18,C0,4B,61,32,00,00,
1668639,00000201,false,Rx,0,8,00,FE,FE,00,00,00,1F,00,
1669636,000000FA,false,Rx,0,8,00,00,18,10,22,18,18,00,
1669637,00000101,false,Rx,0,8,00,00,00,00,00,00,03,00,
1674694,00000102,false,Rx,0,3,00,00,00,00,00,00,00,00,
1678910,000000FA,false,Rx,0,8,00,00,18,10,22,18,18,00,
1679929,000001BA,false,Rx,0,6,10,18,C0,4B,61,32,00,00,
1683279,0000077A,false,Rx,0,8,3F,00,61,20,1C,00,00,FF,
1688644,00000201,false,Rx,0,8,00,FE,FE,00,00,00,20,00,
1689669,000000FA,false,Rx,0,8,00,00,18,10,22,18,18,00,
1694720,00000766,false,Rx,0,8,18,04,00,00,00,03,00,00,
1698930,000000FA,false,Rx,0,8,00,00,18,10,22,18,18,00,
1699939,000001BA,false,Rx,0,6,10,18,C0,4B,61,32,00,00,
1704745,0000049A,false,Rx,0,7,00,AF,33,FA,DF,34,D0,00,
1706015,000007DF,false,Rx,0,8,02,01,0D,AA,AA,AA,AA,AA,
1708599,00000741,false,Rx,0,6,00,00,00,00,00,00,00,00,
1709618,000000FA,false,Rx,0,8,00,00,18,10,22,18,18,00,
1709619,00000201,false,Rx,0,8,00,FE,FE,00,00,00,21,00,
1710615,00000101,false,Rx,0,8,00,00,00,00,00,00,03,00,
1710616,000007E8,false,Rx,0,8,03,41,0D,00,00,00,00,00,
1714644,00000386,false,Rx,0,6,02,15,AF,F4,B6,00,00,00,
1715630,00000102,false,Rx,0,3,00,00,00,00,00,00,00,00,
1718439,000007DF,false,Rx,0,8,02,01,01,AA,AA,AA,AA,AA,
1719429,000000FA,false,Rx,0,8,00,00,18,10,22,18,18,00,
1719430,000007E8,false,Rx,0,8,06,41,01,00,06,80,00,00,
1720443,000001BA,false,Rx,0,6,10,18,C0,4B,61,32,00,00,
1728593,00000201,false,Rx,0,8,00,FE,FE,00,00,00,22,00,
1729662,000000FA,false,Rx,0,8,00,00,18,10,22,18,18,00,
1734124,000007DF,false,Rx,0,8,02,01,0C,AA,AA,AA,AA,AA,
1738883,000000FA,false,Rx,0,8,00,00,18,10,22,18,18,00,
1739874,000007E8,false,Rx,0,8,04,41,0C,00,00,00,00,00,
1739875,000001BA,false,Rx,0,6,10,18,C0,4B,61,32,00,00,
1748629,00000201,false,Rx,0,8,00,FE,FE,00,00,00,23,00,
1749645,000000FA,false,Rx,0,8,00,00,18,10,22,18,18,00,
1749646,00000101,false,Rx,0,8,00,00,00,00,00,00,03,00,
1755174,00000102,false,Rx,0,3,00,00,00,00,00,00,00,00,
1758846,000000FA,false,Rx,0,8,00,00,18,10,22,18,18,00,
1759867,000001BA,false,Rx,0,6,10,18,C0,4B,61,32,00,00,
1763512,00000711,false,Rx,0,8,04,03,F1,F1,06,70,00,22,
1768605,00000201,false,Rx,0,8,00,FE,FE,00,00,00,24,00,
1769621,000000FA,false,Rx,0,8,00,00,18,10,22,18,18,00,
1778822,000000FA,false,Rx,0,8,00,00,18,10,22,18,18,00,
1779850,000001BA,false,Rx,0,6,10,18,C0,4B,61,32,00,00,
1783091,0000077A,false,Rx,0,8,3F,00,61,20,1C,00,00,FF,
1788622,00000201,false,Rx,0,8,00,FE,FE,00,00,00,25,00,
1789617,000000FA,false,Rx,0,8,00,00,18,10,22,18,18,00,
1789618,00000101,false,Rx,0,8,00,00,00,00,00,00,03,00,
1794720,00000766,false,Rx,0,8,18,04,00,00,00,03,00,00,
1798003,00000102,false,Rx,0,3,00,00,00,00,00,00,00,00,
1798998,000000FA,false,Rx,0,8,00,00,18,10,22,18,18,00,
1800015,000001BA,false,Rx,0,6,10,18,C0,4B,61,32,00,00,
1804708,0000049A,false,Rx,0,7,00,AF,33,FA,DF,34,D0,00,
1808546,00000741,false,Rx,0,6,00,00,00,00,00,00,00,00,
1809551,000000FA,false,Rx,0,8,00,00,18,10,22,18,18,00,
1809552,00000201,false,Rx,0,8,00,FE,FE,00,00,00,26,00,
1814654,00000386,false,Rx,0,6,02,15,AF,F4,B6,00,00,00,
1818823,000000FA,false,Rx,0,8,00,00,18,10,22,18,18,00,
1819839,000001BA,false,Rx,0,6,10,18,C0,4B,61,32,00,00,
1828626,00000201,false,Rx,0,8,00,FE,FE,00,00,00,27,00,
1829626,000000FA,false,Rx,0,8,00,00,18,10,22,18,18,00,
1829627,00000101,false,Rx,0,8,00,00,00,00,00,00,03,00,
1837470,00000102,false,Rx,0,3,00,00,00,00,00,00,00,00,
1838801,000000FA,false,Rx,0,8,00,00,18,10,22,18,18,00,
1839832,000001BA,false,Rx,0,6,10,18,C0,4B,61,32,00,00,
1848575,00000201,false,Rx,0,8,00,FE,FE,00,00,00,28,00,
1849587,000000FA,false,Rx,0,8,00,00,18,10,22,18,18,00,
1858791,000000FA,false,Rx,0,8,00,00,18,10,22,18,18,00,
1859801,000001BA,false,Rx,0,6,10,18,C0,4B,61,32,00,00,
1868631,00000201,false,Rx,0,8,00,FE,FE,00,00,00,29,00,
1869617,000000FA,false,Rx,0,8,00,00,18,10,22,18,18,00,
1869618,00000101,false,Rx,0,8,00,00,00,00,00,00,03,00,
1871665,00000711,false,Rx,0,8,04,03,F1,F1,06,70,00,22,
1878031,00000102,false,Rx,0,3,00,00,00,00,00,00,00,00,
1879044,000000FA,false,Rx,0,8,00,00,18,10,22,18,18,00,
1880015,000001BA,false,Rx,0,6,10,18,C0,4B,61,32,00,00,
1883160,0000077A,false,Rx,0,8,3F,00,61,20,1C,00,00,FF,
1888586,00000201,false,Rx,0,8,00,FE,FE,00,00,00,2A,00,
1889616,000000FA,false,Rx,0,8,00,00,18,10,22,18,18,00,
1894698,00000766,false,Rx,0,8,18,04,00,00,00,03,00,00,
1898796,000000FA,false,Rx,0,8,00,00,18,10,22,18,18,00,
1899799,000001BA,false,Rx,0,6,10,18,C0,4B,61,32,00,00,
1904618,0000049A,false,Rx,0,7,00,AF,33,FA,DF,34,D0,00,
1908592,00000741,false,Rx,0,6,00,00,00,00,00,00,00,00,
1909617,000000FA,false,Rx,0,8,00,00,18,10,22,18,18,00,
1909618,00000201,false,Rx,0,8,00,FE,FE,00,00,00,2B,00,
1910614,00000101,false,Rx,0,8,00,00,00,00,00,00,03,00,
1914632,00000386,false,Rx,0,6,02,15,AF,F4,B6,00,00,00,
1918808,000000FA,false,Rx,0,8,00,00,18,10,22,18,18,00,
1919831,000001BA,false,Rx,0,6,10,18,C0,4B,61,32,00,00,
1920819,00000102,false,Rx,0,3,00,00,00,00,00,00,00,00,
1928590,00000201,false,Rx,0,8,00,FE,FE,00,00,00,2C,00,
1929592,000000FA,false,Rx,0,8,00,00,18,10,22,18,18,00,
1938719,000000FA,false,Rx,0,8,00,00,18,10,22,18,18,00,
1939740,000001BA,false,Rx,0,6,10,18,C0,4B,61,32,00,00,
1948606,00000201,false,Rx,0,8,00,FE,FE,00,00,00,2D,00,
1949618,000000FA,false,Rx,0,8,00,00,18,10,22,18,18,00,
1949620,00000101,false,Rx,0,8,00,00,00,00,00,00,03,00,
1958750,000000FA,false,Rx,0,8,00,00,18,10,22,18,18,00,
1959768,000001BA,false,Rx,0,6,10,18,C0,4B,61,32,00,00,
1960752,00000102,false,Rx,0,3,00,00,00,00,00,00,00,00,
1968577,00000201,false,Rx,0,8,00,FE,FE,00,00,00,2E,00,
1969601,000000FA,false,Rx,0,8,00,00,18,10,22,18,18,00,
1976952,00000711,false,Rx,0,8,04,03,F1,F1,06,70,00,22,
1978714,000000FA,false,Rx,0,8,00,00,18,10,22,18,18,00,
1979742,000001BA,false,Rx,0,6,10,18,C0,4B,61,32,00,00,
1982996,0000077A,false,Rx,0,8,3F,00,61,20,1C,00,00,FF,
1988589,00000201,false,Rx,0,8,00,FE,FE,00,00,00,2F,00,
1989613,000000FA,false,Rx,0,8,00,00,18,10,22,18,18,00,
1989614,00000101,false,Rx,0,8,00,00,00,00,00,00,03,00,
1994679,00000766,false,Rx,0,8,18,04,00,00,00,03,00,00,
1998762,000000FA,false,Rx,0,8,00,00,18,10,22,18,18,00,
1999755,000001BA,false,Rx,0,6,10,18,C0,4B,61,32,00,00,
2000920,00000102,false,Rx,0,3,00,00,00,00,00,00,00,00,
2004634,0000049A,false,Rx,0,7,00,AF,33,FA,DF,34,D0,00,
2008529,00000741,false,Rx,0,6,00,00,00,00,00,00,00,00,
2009544,000000FA,false,Rx,0,8,00,00,18,10,22,18,18,00,
2009545,00000201,false,Rx,0,8,00,FE,FE,00,00,00,30,00,
2014593,00000386,false,Rx,0,6,02,15,AF,F4,B6,00,00,00,
2018698,000000FA,false,Rx,0,8,00,00,18,10,22,18,18,00,
2019715,000001BA,false,Rx,0,6,10,18,C0,4B,61,32,00,00,
2028645,00000201,false,Rx,0,8,00,FE,FE,00,00,00,31,00,
2029645,000000FA,false,Rx,0,8,00,00,18,10,22,18,18,00,
2029646,00000101,false,Rx,0,8,00,00,00,00,00,00,03,00,
2038703,000000FA,false,Rx,0,8,00,00,18,10,22,18,18,00,
2039712,000001BA,false,Rx,0,6,10,18,C0,4B,61,32,00,00,
2042180,00000102,false,Rx,0,3,00,00,00,00,00,00,00,00,
2048571,00000201,false,Rx,0,8,00,FE,FE,00,00,00,32,00,
2049588,000000FA,false,Rx,0,8,00,00,18,10,22,18,18,00,
2058682,000000FA,false,Rx,0,8,00,00,18,10,22,18,18,00,
2059691,000001BA,false,Rx,0,6,10,18,C0,4B,61,32,00,00,
2068623,00000201,false,Rx,0,8,00,FE,FE,00,00,00,33,00,
2069612,000000FA,false,Rx,0,8,00,00,18,10,22,18,18,00,
2069613,00000101,false,Rx,0,8,00,00,00,00,00,00,03,00,
2078690,000000FA,false,Rx,0,8,00,00,18,10,22,18,18,00,
2079670,000001BA,false,Rx,0,6,10,18,C0,4B,61,32,00,00,
2083027,0000077A,false,Rx,0,8,3F,00,61,20,1C,00,00,FF,
2084048,00000102,false,Rx,0,3,00,00,00,00,00,00,00,00,
2085075,00000711,false,Rx,0,8,04,03,F1,F1,06,70,00,22,
2088566,00000201,false,Rx,0,8,00,FE,FE,00,00,00,34,00,
2089586,000000FA,false,Rx,0,8,00,00,18,10,22,18,18,00,
2094667,00000766,false,Rx,0,8,18,04,00,00,00,03,00,00,
2098690,000000FA,false,Rx,0,8,00,00,18,10,22,18,18,00,
2099692,000001BA,false,Rx,0,6,10,18,C0,4B,61,32,00,00,
2104491,0000049A,false,Rx,0,7,00,AF,33,FA,DF,34,D0,00,
2108525,00000741,false,Rx,0,6,00,00,00,00,00,00,00,00,
2109542,000000FA,false,Rx,0,8,00,00,18,10,22,18,18,00,
2109543,00000201,false,Rx,0,8,00,FE,FE,00,00,00,35,00,
2110541,00000101,false,Rx,0,8,00,00,00,00,00,00,03,00,
2114597,00000386,false,Rx,0,6,02,15,AF,F4,B6,00,00,00,
2118669,000000FA,false,Rx,0,8,00,00,18,10,22,18,18,00,
2119676,000001BA,false,Rx,0,6,10,18,C0,4B,61,32,00,00,
2124049,00000102,false,Rx,0,3,00,00,00,00,00,00,00,00,
2128567,00000201,false,Rx,0,8,00,FE,FE,00,00,00,36,00,
2129587,000000FA,false,Rx,0,8,00,00,18,10,22,18,18,00,
2139089,000000FA,false,Rx,0,8,00,00,18,10,22,18,18,00,
2139092,000001BA,false,Rx,0,6,10,18,C0,4B,61,32,00,00,
2148627,00000201,false,Rx,0,8,00,FE,FE,00,00,00,37,00,
2149596,000000FA,false,Rx,0,8,00,00,18,10,22,18,18,00,
2149597,00000101,false,Rx,0,8,00,00,00,00,00,00,03,00,
2158686,000000FA,false,Rx,0,8,00,00,18,10,22,18,18,00,
2159688,000001BA,false,Rx,0,6,10,18,C0,4B,61,32,00,00,
2166768,00000102,false,Rx,0,3,00,00,00,00,00,00,00,00,
2168532,00000201,false,Rx,0,8,00,FE,FE,00,00,00,38,00,
2169587,000000FA,false,Rx,0,8,00,00,18,10,22,18,18,00,
2178629,000000FA,false,Rx,0,8,00,00,18,10,22,18,18,00,
2179622,000001BA,false,Rx,0,6,10,18,C0,4B,61,32,00,00,
2182913,0000077A,false,Rx,0,8,3F,00,61,20,1C,00,00,FF,
2188587,000000FA,false,Rx,0,8,00,00,18,10,22,18,18,00,
2189594,00000201,false,Rx,0,8,00,FE,FE,00,00,00,39,00,
2189595,00000101,false,Rx,0,8,00,00,00,00,00,00,03,00,
2190603,00000711,false,Rx,0,8,04,03,F1,F1,06,70,00,22,
2194704,00000766,false,Rx,0,8,18,04,00,00,00,03,00,00,
2198699,000000FA,false,Rx,0,8,00,00,18,10,22,18,18,00,
2199711,000001BA,false,Rx,0,6,10,18,C0,4B,61,32,00,00,
2204528,0000049A,false,Rx,0,7,00,AF,33,FA,DF,34,D0,00,
2206734,00000102,false,Rx,0,3,00,00,00,00,00,00,00,00,
2208533,00000741,false,Rx,0,6,00,00,00,00,00,00,00,00,
2209540,000000FA,false,Rx,0,8,00,00,18,10,22,18,18,00,
2209543,00000201,false,Rx,0,8,00,FE,FE,00,00,00,3A,00,
2214624,00000386,false,Rx,0,6,02,15,AF,F4,B6,00,00,00,
2218613,000000FA,false,Rx,0,8,00,00,18,10,22,18,18,00,
2219629,000001BA,false,Rx,0,6,10,18,C0,4B,61,32,00,00,
2228570,000000FA,false,Rx,0,8,00,00,18,10,22,18,18,00,
2229560,00000201,false,Rx,0,8,00,FE,FE,00,00,00,3B,00,
2229562,00000101,false,Rx,0,8,00,00,00,00,00,00,03,00,
2238585,000000FA,false,Rx,0,8,00,00,18,10,22,18,18,00,
2239609,000001BA,false,Rx,0,6,10,18,C0,4B,61,32,00,00,
2246656,00000102,false,Rx,0,3,00,00,00,00,00,00,00,00,
2248595,00000201,false,Rx,0,8,00,FE,FE,00,00,00,3C,00,
2249602,000000FA,false,Rx,0,8,00,00,18,10,22,18,18,00,
2258599,000000FA,false,Rx,0,8,00,00,18,10,22,18,18,00,
2259605,000001BA,false,Rx,0,6,10,18,C0,4B,61,32,00,00,
2268570,000000FA,false,Rx,0,8,00,00,18,10,22,18,18,00,
2269589,00000201,false,Rx,0,8,00,FE,FE,00,00,00,3D,00,
2269591,00000101,false,Rx,0,8,00,00,00,00,00,00,03,00,
2278597,000000FA,false,Rx,0,8,00,00,18,10,22,18,18,00,
2279594,000001BA,false,Rx,0,6,10,18,C0,4B,61,32,00,00,
2282966,0000077A,false,Rx,0,8,3F,00,61,20,1C,00,00,FF,
2288083,00000102,false,Rx,0,3,00,00,00,00,00,00,00,00,
2289098,000000FA,false,Rx,0,8,00,00,18,10,22,18,18,00,
2289099,00000201,false,Rx,0,8,00,FE,FE,00,00,00,3E,00,
2294691,00000766,false,Rx,0,8,18,04,00,00,00,03,00,00,
2295986,00000711,false,Rx,0,8,04,03,F1,F1,06,70,00,22,
2298590,000000FA,false,Rx,0,8,00,00,18,10,22,18,18,00,
2299603,000001BA,false,Rx,0,6,10,18,C0,4B,61,32,00,00,
2304384,0000049A,false,Rx,0,7,00,AF,33,FA,DF,34,D0,00,
2308546,000000FA,false,Rx,0,8,00,00,18,10,22,18,18,00,
2309548,00000741,false,Rx,0,6,00,00,00,00,00,00,00,00,
2309550,00000201,false,Rx,0,8,00,FE,FE,00,00,00,3F,00,
2310566,00000101,false,Rx,0,8,00,00,00,00,00,00,03,00,
2314581,00000386,false,Rx,0,6,02,15,AF,F4,B6,00,00,00,
2318579,000000FA,false,Rx,0,8,00,00,18,10,22,18,18,00,
2319571,000001BA,false,Rx,0,6,10,18,C0,4B,61,32,00,00,
2328558,000000FA,false,Rx,0,8,00,00,18,10,22,18,18,00,
2329546,00000201,false,Rx,0,8,00,FE,FE,00,00,00,40,00,
2329548,00000102,false,Rx,0,3,00,00,00,00,00,00,00,00,
2338550,000000FA,false,Rx,0,8,00,00,18,10,22,18,18,00,
2339567,000001BA,false,Rx,0,6,10,18,C0,4B,61,32,00,00,
2348525,000000FA,false,Rx,0,8,00,00,18,10,22,18,18,00,
2349550,00000201,false,Rx,0,8,00,FE,FE,00,00,00,41,00,
2349552,00000101,false,Rx,0,8,00,00,00,00,00,00,03,00,
2358544,000000FA,false,Rx,0,8,00,00,18,10,22,18,18,00,
2359553,000001BA,false,Rx,0,6,10,18,C0,4B,61,32,00,00,
2368528,000000FA,false,Rx,0,8,00,00,18,10,22,18,18,00,
2369547,00000201,false,Rx,0,8,00,FE,FE,00,00,00,42,00,
2370566,00000102,false,Rx,0,3,00,00,00,00,00,00,00,00,
2378511,000000FA,false,Rx,0,8,00,00,18,10,22,18,18,00,
2379533,000001BA,false,Rx,0,6,10,18,C0,4B,61,32,00,00,
2382792,0000077A,false,Rx,0,8,3F,00,61,20,1C,00,00,FF,
2388483,000000FA,false,Rx,0,8,00,00,18,10,22,18,18,00,
2389476,00000201,false,Rx,0,8,00,FE,FE,00,00,00,43,00,
2389477,00000101,false,Rx,0,8,00,00,00,00,00,00,03,00,
2394674,00000766,false,Rx,0,8,18,04,00,00,00,03,00,00,
2398584,000000FA,false,Rx,0,8,00,00,18,10,22,18,18,00,
2399606,000001BA,false,Rx,0,6,10,18,C0,4B,61,32,00,00,
2403132,00000711,false,Rx,0,8,04,03,F1,F1,06,70,00,22,
2404458,0000049A,false,Rx,0,7,00,AF,33,FA,DF,34,D0,00,
2408533,000000FA,false,Rx,0,8,00,00,18,10,22,18,18,00,
2409519,00000741,false,Rx,0,6,00,00,00,00,00,00,00,00,
2409520,00000201,false,Rx,0,8,00,FE,FE,00,00,00,44,00,
2410570,00000102,false,Rx,0,3,00,00,00,00,00,00,00,00,
2414544,00000386,false,Rx,0,6,02,15,AF,F4,B6,00,00,00,
2418509,000000FA,false,Rx,0,8,00,00,18,10,22,18,18,00,
2419503,000001BA,false,Rx,0,6,10,18,C0,4B,61,32,00,00,
2428472,000000FA,false,Rx,0,8,00,00,18,10,22,18,18,00,
2429461,00000201,false,Rx,0,8,00,FE,FE,00,00,00,45,00,
2429462,00000101,false,Rx,0,8,00,00,00,00,00,00,03,00,
2438463,000000FA,false,Rx,0,8,00,00,18,10,22,18,18,00,
2439487,000001BA,false,Rx,0,6,10,18,C0,4B,61,32,00,00,
2448522,000000FA,false,Rx,0,8,00,00,18,10,22,18,18,00,
2449544,00000201,false,Rx,0,8,00,FE,FE,00,00,00,46,00,
2452009,00000102,false,Rx,0,3,00,00,00,00,00,00,00,00,
2458504,000000FA,false,Rx,0,8,00,00,18,10,22,18,18,00,
2459503,000001BA,false,Rx,0,6,10,18,C0,4B,61,32,00,00,
2468447,000000FA,false,Rx,0,8,00,00,18,10,22,18,18,00,
2469462,00000201,false,Rx,0,8,00,FE,FE,00,00,00,47,00,
2469463,00000101,false,Rx,0,8,00,00,00,00,00,00,03,00,
2478468,000000FA,false,Rx,0,8,00,00,18,10,22,18,18,00,
2479485,000001BA,false,Rx,0,6,10,18,C0,4B,61,32,00,00,
2482834,0000077A,false,Rx,0,8,3F,00,61,20,1C,00,00,FF,
2488461,000000FA,false,Rx,0,8,00,00,18,10,22,18,18,00,
2489452,00000201,false,Rx,0,8,00,FE,FE,00,00,00,48,00,
2492394,00000102,false,Rx,0,3,00,00,00,00,00,00,00,00,
2494656,00000766,false,Rx,0,8,18,04,00,00,00,03,00,00,
2495669,0000069F,false,Rx,0,4,89,55,10,0F,00,00,00,00,
2498538,000000FA,false,Rx,0,8,00,00,18,10,22,18,18,00,
2499540,000001BA,false,Rx,0,6,10,18,C0,4B,61,32,00,00,
2504339,0000049A,false,Rx,0,7,00,AF,33,FA,DF,34,D0,00,
2508442,000000FA,false,Rx,0,8,00,00,18,10,22,18,18,00,
2509460,00000741,false,Rx,0,6,00,00,00,00,00,00,00,00,
2509462,00000201,false,Rx,0,8,00,FE,FE,00,00,00,49,00,
2510486,00000101,false,Rx,0,8,00,00,00,00,00,00,03,00,
2511480,00000711,false,Rx,0,8,04,03,F1,F1,06,70,00,22,
2514564,00000386,false,Rx,0,6,02,15,AF,F4,B6,00,00,00,
2518448,000000FA,false,Rx,0,8,00,00,18,10,22,18,18,00,
2519473,000001BA,false,Rx,0,6,10,18,C0,4B,61,32,00,00,
2528437,000000FA,false,Rx,0,8,00,00,18,10,22,18,18,00,
2529461,00000201,false,Rx,0,8,00,FE,FE,00,00,00,4A,00,
2533484,00000102,false,Rx,0,3,00,00,00,00,00,00,00,00,
2538424,000000FA,false,Rx,0,8,00,00,18,10,22,18,18,00,
2539440,000001BA,false,Rx,0,6,10,18,C0,4B,61,32,00,00,
2548418,000000FA,false,Rx,0,8,00,00,18,10,22,18,18,00,
2549424,00000201,false,Rx,0,8,00,FE,FE,00,00,00,4B,00,
2549426,00000101,false,Rx,0,8,00,00,00,00,00,00,03,00,
2558447,000000FA,false,Rx,0,8,00,00,18,10,22,18,18,00,
2559455,000001BA,false,Rx,0,6,10,18,C0,4B,61,32,00,00,
2568415,000000FA,false,Rx,0,8,00,00,18,10,22,18,18,00,
2569427,00000201,false,Rx,0,8,00,FE,FE,00,00,00,4C,00,
2574310,00000102,false,Rx,0,3,00,00,00,00,00,00,00,00,
2578398,000000FA,false,Rx,0,8,00,00,18,10,22,18,18,00,
2579417,000001BA,false,Rx,0,6,10,18,C0,4B,61,32,00,00,
2582667,0000077A,false,Rx,0,8,3F,00,61,20,1C,00,00,FF,
2588387,000000FA,false,Rx,0,8,00,00,18,10,22,18,18,00,
2589390,00000201,false,Rx,0,8,00,FE,FE,00,00,00,4D,00,
2589391,00000101,false,Rx,0,8,00,00,00,00,00,00,03,00,
2594626,00000766,false,Rx,0,8,18,04,00,00,00,03,00,00,
2598459,000000FA,false,Rx,0,8,00,00,18,10,22,18,18,00,
2599455,000001BA,false,Rx,0,6,10,18,C0,4B,61,32,00,00,
2604293,0000049A,false,Rx,0,7,00,AF,33,FA,DF,34,D0,00,
2608355,000000FA,false,Rx,0,8,00,00,18,10,22,18,18,00,
2609418,00000741,false,Rx,0,6,00,00,00,00,00,00,00,00,
2609420,00000201,false,Rx,0,8,00,FE,FE,00,00,00,4E,00,
2614569,00000386,false,Rx,0,6,02,15,AF,F4,B6,00,00,00,
2615787,00000102,false,Rx,0,3,00,00,00,00,00,00,00,00,
2617222,00000711,false,Rx,0,8,04,03,F1,F1,06,70,00,22,
2618393,000000FA,false,Rx,0,8,00,00,18,10,22,18,18,00,
2619409,000001BA,false,Rx,0,6,10,18,C0,4B,61,32,00,00,
2628390,000000FA,false,Rx,0,8,00,00,18,10,22,18,18,00,
2629406,00000201,false,Rx,0,8,00,FE,FE,00,00,00,4F,00,
2629407,00000101,false,Rx,0,8,00,00,00,00,00,00,03,00,
2638367,000000FA,false,Rx,0,8,00,00,18,10,22,18,18,00,
2639386,000001BA,false,Rx,0,6,10,18,C0,4B,61,32,00,00,
2648386,000000FA,false,Rx,0,8,00,00,18,10,22,18,18,00,
2649403,00000201,false,Rx,0,8,00,FE,FE,00,00,00,50,00,
2656284,00000102,false,Rx,0,3,00,00,00,00,00,00,00,00,
2658422,000000FA,false,Rx,0,8,00,00,18,10,22,18,18,00,
2659424,000001BA,false,Rx,0,6,10,18,C0,4B,61,32,00,00,
2668352,000000FA,false,Rx,0,8,00,00,18,10,22,18,18,00,
2669341,00000201,false,Rx,0,8,00,FE,FE,00,00,00,51,00,
2669343,00000101,false,Rx,0,8,00,00,00,00,00,00,03,00,
2678396,000000FA,false,Rx,0,8,00,00,18,10,22,18,18,00,
2679407,000001BA,false,Rx,0,6,10,18,C0,4B,61,32,00,00,
2682759,0000077A,false,Rx,0,8,3F,00,61,20,1C,00,00,FF,
2688327,000000FA,false,Rx,0,8,00,00,18,10,22,18,18,00,
2689336,00000201,false,Rx,0,8,00,FE,FE,00,00,00,52,00,
2694604,00000766,false,Rx,0,8,18,04,00,00,00,03,00,00,
2697534,00000102,false,Rx,0,3,00,00,00,00,00,00,00,00,
2698545,000000FA,false,Rx,0,8,00,00,18,10,22,18,18,00,
2699544,000001BA,false,Rx,0,6,10,18,C0,4B,61,32,00,00,
2704148,0000049A,false,Rx,0,7,00,AF,33,FA,DF,34,D0,00,
2708316,000000FA,false,Rx,0,8,00,00,18,10,22,18,18,00,
2709336,00000741,false,Rx,0,6,00,00,00,00,00,00,00,00,
2709337,00000201,false,Rx,0,8,00,FE,FE,00,00,00,53,00,
2710356,00000101,false,Rx,0,8,00,00,00,00,00,00,03,00,
2714558,00000386,false,Rx,0,6,02,15,AF,F4,B6,00,00,00,
2717249,000007DF,false,Rx,0,8,02,01,0D,AA,AA,AA,AA,AA,
2718384,000000FA,false,Rx,0,8,00,00,18,10,22,18,18,00,
2719394,000007E8,false,Rx,0,8,03,41,0D,00,00,00,00,00,
2719395,000001BA,false,Rx,0,6,10,18,C0,4B,61,32,00,00,
2722949,00000711,false,Rx,0,8,04,03,F1,F1,06,70,00,22,
2728316,000000FA,false,Rx,0,8,00,00,18,10,22,18,18,00,
2729337,00000201,false,Rx,0,8,00,FE,FE,00,00,00,54,00,
2733261,000007DF,false,Rx,0,8,02,01,01,AA,AA,AA,AA,AA,
2738287,000000FA,false,Rx,0,8,00,00,18,10,22,18,18,00,
2739301,00000102,false,Rx,0,3,00,00,00,00,00,00,00,00,
2739302,000001BA,false,Rx,0,6,10,18,C0,4B,61,32,00,00,
2740302,000007E8,false,Rx,0,8,06,41,01,00,06,80,00,00,
2745000,000007DF,false,Rx,0,8,02,01,0C,AA,AA,AA,AA,AA,
2748315,000000FA,false,Rx,0,8,00,00,18,10,22,18,18,00,
2749294,00000201,false,Rx,0,8,00,FE,FE,00,00,00,55,00,
2749296,00000101,false,Rx,0,8,00,00,00,00,00,00,03,00,
2750324,000007E8,false,Rx,0,8,04,41,0C,00,00,00,00,00,
2758319,000000FA,false,Rx,0,8,00,00,18,10,22,18,18,00,
2759341,000001BA,false,Rx,0,6,10,18,C0,4B,61,32,00,00,
2768313,000000FA,false,Rx,0,8,00,00,18,10,22,18,18,00,
2769329,00000201,false,Rx,0,8,00,FE,FE,00,00,00,56,00,
2778326,000000FA,false,Rx,0,8,00,00,18,10,22,18,18,00,
2779340,000001BA,false,Rx,0,6,10,18,C0,4B,61,32,00,00,
2779341,00000102,false,Rx,0,3,00,00,00,00,00,00,00,00,
2782610,0000077A,false,Rx,0,8,3F,00,61,20,1C,00,00,FF,
2788242,000000FA,false,Rx,0,8,00,00,18,10,22,18,18,00,
2789245,00000201,false,Rx,0,8,00,FE,FE,00,00,00,57,00,
2789246,00000101,false,Rx,0,8,00,00,00,00,00,00,03,00,
2794584,00000766,false,Rx,0,8,18,04,00,00,00,03,00,00,
2798362,000000FA,false,Rx,0,8,00,00,18,10,22,18,18,00,
2799371,000001BA,false,Rx,0,6,10,18,C0,4B,61,32,00,00,
2804234,0000049A,false,Rx,0,7,00,AF,33,FA,DF,34,D0,00,
2808300,000000FA,false,Rx,0,8,00,00,18,10,22,18,18,00,
2809314,00000741,false,Rx,0,6,00,00,00,00,00,00,00,00,
2809315,00000201,false,Rx,0,8,00,FE,FE,00,00,00,58,00,
2814501,00000386,false,Rx,0,6,02,15,AF,F4,B6,00,00,00,
2818247,000000FA,false,Rx,0,8,00,00,18,10,22,18,18,00,
2819273,000001BA,false,Rx,0,6,10,18,C0,4B,61,32,00,00,
2820297,00000102,false,Rx,0,3,00,00,00,00,00,00,00,00,
2828197,000000FA,false,Rx,0,8,00,00,18,10,22,18,18,00,
2829261,00000201,false,Rx,0,8,00,FE,FE,00,00,00,59,00,
2829262,00000101,false,Rx,0,8,00,00,00,00,00,00,03,00,
2830259,00000711,false,Rx,0,8,04,03,F1,F1,06,70,00,22,
2838286,000000FA,false,Rx,0,8,00,00,18,10,22,18,18,00,
2839281,000001BA,false,Rx,0,6,10,18,C0,4B,61,32,00,00,
2848296,000000FA,false,Rx,0,8,00,00,18,10,22,18,18,00,
2849316,00000201,false,Rx,0,8,00,FE,FE,00,00,00,5A,00,
2858239,000000FA,false,Rx,0,8,00,00,18,10,22,18,18,00,
2859243,000001BA,false,Rx,0,6,10,18,C0,4B,61,32,00,00,
2861694,00000102,false,Rx,0,3,00,00,00,00,00,00,00,00,
2868240,000000FA,false,Rx,0,8,00,00,18,10,22,18,18,00,
2869230,00000201,false,Rx,0,8,00,FE,FE,00,00,00,5B,00,
2869232,00000101,false,Rx,0,8,00,00,00,00,00,00,03,00,
2878270,000000FA,false,Rx,0,8,00,00,18,10,22,18,18,00,
2879284,000001BA,false,Rx,0,6,10,18,C0,4B,61,32,00,00,
2882635,0000077A,false,Rx,0,8,3F,00,61,20,1C,00,00,FF,
2888229,000000FA,false,Rx,0,8,00,00,18,10,22,18,18,00,
2889238,00000201,false,Rx,0,8,00,FE,FE,00,00,00,5C,00,
2894635,00000766,false,Rx,0,8,18,04,00,00,00,03,00,00,
2898296,000000FA,false,Rx,0,8,00,00,18,10,22,18,18,00,
2899296,000001BA,false,Rx,0,6,10,18,C0,4B,61,32,00,00,
2901986,00000102,false,Rx,0,3,00,00,00,00,00,00,00,00,
2904109,0000049A,false,Rx,0,7,00,AF,33,FA,DF,34,D0,00,
2908201,000000FA,false,Rx,0,8,00,00,18,10,22,18,18,00,
2909215,00000741,false,Rx,0,6,00,00,00,00,00,00,00,00,
2909217,00000201,false,Rx,0,8,00,FE,FE,00,00,00,5D,00,
2910214,00000101,false,Rx,0,8,00,00,00,00,00,00,03,00,
2914528,00000386,false,Rx,0,6,02,15,AF,F4,B6,00,00,00,
2918241,000000FA,false,Rx,0,8,00,00,18,10,22,18,18,00,
2919260,000001BA,false,Rx,0,6,10,18,C0,4B,61,32,00,00,
2928229,000000FA,false,Rx,0,8,00,00,18,10,22,18,18,00,
2929264,00000201,false,Rx,0,8,00,FE,FE,00,00,00,5E,00,
2935001,00000711,false,Rx,0,8,04,03,F1,F1,06,70,00,22,
2938199,000000FA,false,Rx,0,8,00,00,18,10,22,18,18,00,
2939200,000001BA,false,Rx,0,6,10,18,C0,4B,61,32,00,00,
2943755,00000102,false,Rx,0,3,00,00,00,00,00,00,00,00,
2948201,000000FA,false,Rx,0,8,00,00,18,10,22,18,18,00,
2949187,00000201,false,Rx,0,8,00,FE,FE,00,00,00,5F,00,
2949188,00000101,false,Rx,0,8,00,00,00,00,00,00,03,00,
2958209,000000FA,false,Rx,0,8,00,00,18,10,22,18,18,00,
2959221,000001BA,false,Rx,0,6,10,18,C0,4B,61,32,00,00,
2968223,000000FA,false,Rx,0,8,00,00,18,10,22,18,18,00,
2969197,00000201,false,Rx,0,8,00,FE,FE,00,00,00,60,00,
2978190,000000FA,false,Rx,0,8,00,00,18,10,22,18,18,00,
2979212,000001BA,false,Rx,0,6,10,18,C0,4B,61,32,00,00,
2982431,0000077A,false,Rx,0,8,3F,00,61,20,1C,00,00,FF,
2984004,00000102,false,Rx,0,3,00,00,00,00,00,00,00,00,
2988140,000000FA,false,Rx,0,8,00,00,18,10,22,18,18,00,
2989159,00000201,false,Rx,0,8,00,FE,FE,00,00,00,61,00,
2989160,00000101,false,Rx,0,8,00,00,00,00,00,00,03,00,
2994594,00000766,false,Rx,0,8,18,04,00,00,00,03,00,00,
2998204,000000FA,false,Rx,0,8,00,00,18,10,22,18,18,00,
2999229,000001BA,false,Rx,0,6,10,18,C0,4B,61,32,00,00,
3004057,0000049A,false,Rx,0,7,00,AF,33,FA,DF,34,D0,00,
3008202,000000FA,false,Rx,0,8,00,00,18,10,22,18,18,00,
3009183,00000741,false,Rx,0,6,00,00,00,00,00,00,00,00,
3009185,00000201,false,Rx,0,8,00,FE,FE,00,00,00,62,00,
3014516,00000386,false,Rx,0,6,02,15,AF,F4,B6,00,00,00,
3018162,000000FA,false,Rx,0,8,00,00,18,10,22,18,18,00,
3019190,000001BA,false,Rx,0,6,10,18,C0,4B,61,32,00,00,
3025395,00000102,false,Rx,0,3,00,00,00,00,00,00,00,00,
3028066,000000FA,false,Rx,0,8,00,00,18,10,22,18,18,00,
3029120,00000201,false,Rx,0,8,00,FE,FE,00,00,00,63,00,
3029121,00000101,false,Rx,0,8,00,00,00,00,00,00,03,00,
3038161,000000FA,false,Rx,0,8,00,00,18,10,22,18,18,00,
3039177,000001BA,false,Rx,0,6,10,18,C0,4B,61,32,00,00,
3041537,00000711,false,Rx,0,8,04,03,F1,F1,06,70,00,22,
3048236,000000FA,false,Rx,0,8,00,00,18,10,22,18,18,00,
3049264,00000201,false,Rx,0,8,00,FE,FE,00,00,00,64,00,
3058143,000000FA,false,Rx,0,8,00,00,18,10,22,18,18,00,
3059161,000001BA,false,Rx,0,6,10,18,C0,4B,61,32,00,00,
3065785,00000102,false,Rx,0,3,00,00,00,00,00,00,00,00,
3068102,000000FA,false,Rx,0,8,00,00,18,10,22,18,18,00,
3069140,00000201,false,Rx,0,8,00,FE,FE,00,00,00,65,00,
3069142,00000101,false,Rx,0,8,00,00,00,00,00,00,03,00,
3078147,000000FA,false,Rx,0,8,00,00,18,10,22,18,18,00,
3079169,000001BA,false,Rx,0,6,10,18,C0,4B,61,32,00,00,
3082505,0000077A,false,Rx,0,8,3F,00,61,20,1C,00,00,FF,
3088126,000000FA,false,Rx,0,8,00,00,18,10,22,18,18,00,
3089144,00000201,false,Rx,0,8,00,FE,FE,00,00,00,66,00,
3094583,00000766,false,Rx,0,8,18,04,00,00,00,03,00,00,
3098150,000000FA,false,Rx,0,8,00,00,18,10,22,18,18,00,
3099169,000001BA,false,Rx,0,6,10,18,C0,4B,61,32,00,00,
3103973,0000049A,false,Rx,0,7,00,AF,33,FA,DF,34,D0,00,
3106749,00000102,false,Rx,0,3,00,00,00,00,00,00,00,00,
3108099,000000FA,false,Rx,0,8,00,00,18,10,22,18,18,00,
3109124,00000741,false,Rx,0,6,00,00,00,00,00,00,00,00,
3109125,00000201,false,Rx,0,8,00,FE,FE,00,00,00,67,00,
3110122,00000101,false,Rx,0,8,00,00,00,00,00,00,03,00,
3114511,00000386,false,Rx,0,6,02,15,AF,F4,B6,00,00,00,
3118135,000000FA,false,Rx,0,8,00,00,18,10,22,18,18,00,
3119148,000001BA,false,Rx,0,6,10,18,C0,4B,61,32,00,00,
3128140,000000FA,false,Rx,0,8,00,00,18,10,22,18,18,00,
3129117,00000201,false,Rx,0,8,00,FE,FE,00,00,00,68,00,
3138141,000000FA,false,Rx,0,8,00,00,18,10,22,18,18,00,
3139137,000001BA,false,Rx,0,6,10,18,C0,4B,61,32,00,00,
3148113,000000FA,false,Rx,0,8,00,00,18,10,22,18,18,00,
3149097,00000201,false,Rx,0,8,00,FE,FE,00,00,00,69,00,
3149099,00000101,false,Rx,0,8,00,00,00,00,00,00,03,00,
3150071,00000102,false,Rx,0,3,00,00,00,00,00,00,00,00,
3151064,00000711,false,Rx,0,8,04,03,F1,F1,06,70,00,22,
3158071,000000FA,false,Rx,0,8,00,00,18,10,22,18,18,00,
3159122,000001BA,false,Rx,0,6,10,18,C0,4B,61,32,00,00,
3168141,000000FA,false,Rx,0,8,00,00,18,10,22,18,18,00,
3169135,00000201,false,Rx,0,8,00,FE,FE,00,00,00,6A,00,
3178085,000000FA,false,Rx,0,8,00,00,18,10,22,18,18,00,
3179088,000001BA,false,Rx,0,6,10,18,C0,4B,61,32,00,00,
3182326,0000077A,false,Rx,0,8,3F,00,61,20,1C,00,00,FF,
3188019,000000FA,false,Rx,0,8,00,00,18,10,22,18,18,00,
3189038,00000201,false,Rx,0,8,00,FE,FE,00,00,00,6B,00,
3189039,00000101,false,Rx,0,8,00,00,00,00,00,00,03,00,
3190018,00000102,false,Rx,0,3,00,00,00,00,00,00,00,00,
3194570,00000766,false,Rx,0,8,18,04,00,00,00,03,00,00,
3198113,000000FA,false,Rx,0,8,00,00,18,10,22,18,18,00,
3199127,000001BA,false,Rx,0,6,10,18,C0,4B,61,32,00,00,
3203995,0000049A,false,Rx,0,7,00,AF,33,FA,DF,34,D0,00,
3208110,000000FA,false,Rx,0,8,00,00,18,10,22,18,18,00,
3209095,00000741,false,Rx,0,6,00,00,00,00,00,00,00,00,
3209097,00000201,false,Rx,0,8,00,FE,FE,00,00,00,6C,00,
3214488,00000386,false,Rx,0,6,02,15,AF,F4,B6,00,00,00,
3218113,000000FA,false,Rx,0,8,00,00,18,10,22,18,18,00,
3219120,000001BA,false,Rx,0,6,10,18,C0,4B,61,32,00,00,
3228037,000000FA,false,Rx,0,8,00,00,18,10,22,18,18,00,
3229010,00000201,false,Rx,0,8,00,FE,FE,00,00,00,6D,00,
3229011,00000101,false,Rx,0,8,00,00,00,00,00,00,03,00,
3231048,00000102,false,Rx,0,3,00,00,00,00,00,00,00,00,
3238068,000000FA,false,Rx,0,8,00,00,18,10,22,18,18,00,
3239071,000001BA,false,Rx,0,6,10,18,C0,4B,61,32,00,00,
3248067,000000FA,false,Rx,0,8,00,00,18,10,22,18,18,00,
3249087,00000201,false,Rx,0,8,00,FE,FE,00,00,00,6E,00,
3255101,00000711,false,Rx,0,8,04,03,F1,F1,06,70,00,22,
3258066,000000FA,false,Rx,0,8,00,00,18,10,22,18,18,00,
3259074,000001BA,false,Rx,0,6,10,18,C0,4B,61,32,00,00,
3268023,000000FA,false,Rx,0,8,00,00,18,10,22,18,18,00,
3269041,00000201,false,Rx,0,8,00,FE,FE,00,00,00,6F,00,
3269042,00000101,false,Rx,0,8,00,00,00,00,00,00,03,00,
3271436,00000102,false,Rx,0,3,00,00,00,00,00,00,00,00,
3278025,000000FA,false,Rx,0,8,00,00,18,10,22,18,18,00,
3279023,000001BA,false,Rx,0,6,10,18,C0,4B,61,32,00,00,
3282412,0000077A,false,Rx,0,8,3F,00,61,20,1C,00,00,FF,
3288020,000000FA,false,Rx,0,8,00,00,18,10,22,18,18,00,
3289020,00000201,false,Rx,0,8,00,FE,FE,00,00,00,70,00,
3294562,00000766,false,Rx,0,8,18,04,00,00,00,03,00,00,
3298055,000000FA,false,Rx,0,8,00,00,18,10,22,18,18,00,
3299054,000001BA,false,Rx,0,6,10,18,C0,4B,61,32,00,00,
3303849,0000049A,false,Rx,0,7,00,AF,33,FA,DF,34,D0,00,
3308009,000000FA,false,Rx,0,8,00,00,18,10,22,18,18,00,
3309016,00000741,false,Rx,0,6,00,00,00,00,00,00,00,00,
3309018,00000201,false,Rx,0,8,00,FE,FE,00,00,00,71,00,
3310002,00000101,false,Rx,0,8,00,00,00,00,00,00,03,00,
3312489,00000102,false,Rx,0,3,00,00,00,00,00,00,00,00,
3314462,00000386,false,Rx,0,6,02,15,AF,F4,B6,00,00,00,
3317998,000000FA,false,Rx,0,8,00,00,18,10,22,18,18,00,
3319008,000001BA,false,Rx,0,6,10,18,C0,4B,61,32,00,00,
3328009,000000FA,false,Rx,0,8,00,00,18,10,22,18,18,00,
3329007,00000201,false,Rx,0,8,00,FE,FE,00,00,00,72,00,
3337982,000000FA,false,Rx,0,8,00,00,18,10,22,18,18,00,
3339016,000001BA,false,Rx,0,6,10,18,C0,4B,61,32,00,00,
3347958,000000FA,false,Rx,0,8,00,00,18,10,22,18,18,00,
3349032,00000201,false,Rx,0,8,00,FE,FE,00,00,00,73,00,
3349033,00000101,false,Rx,0,8,00,00,00,00,00,00,03,00,
3352810,00000102,false,Rx,0,3,00,00,00,00,00,00,00,00,
3358007,000000FA,false,Rx,0,8,00,00,18,10,22,18,18,00,
3359002,000001BA,false,Rx,0,6,10,18,C0,4B,61,32,00,00,
3360802,00000711,false,Rx,0,8,04,03,F1,F1,06,70,00,22,
3368000,000000FA,false,Rx,0,8,00,00,18,10,22,18,18,00,
3369023,00000201,false,Rx,0,8,00,FE,FE,00,00,00,74,00,
3377964,000000FA,false,Rx,0,8,00,00,18,10,22,18,18,00,
3378971,000001BA,false,Rx,0,6,10,18,C0,4B,61,32,00,00,
3382244,0000077A,false,Rx,0,8,3F,00,61,20,1C,00,00,FF,
3387929,000000FA,false,Rx,0,8,00,00,18,10,22,18,18,00,
3388963,00000201,false,Rx,0,8,00,FE,FE,00,00,00,75,00,
3389939,00000101,false,Rx,0,8,00,00,00,00,00,00,03,00,
3393767,00000102,false,Rx,0,3,00,00,00,00,00,00,00,00,
3394793,00000766,false,Rx,0,8,18,04,00,00,00,03,00,00,
3398012,000000FA,false,Rx,0,8,00,00,18,10,22,18,18,00,
3398987,000001BA,false,Rx,0,6,10,18,C0,4B,61,32,00,00,
3403885,0000049A,false,Rx,0,7,00,AF,33,FA,DF,34,D0,00,
3407986,000000FA,false,Rx,0,8,00,00,18,10,22,18,18,00,
3408983,00000741,false,Rx,0,6,00,00,00,00,00,00,00,00,
3408985,00000201,false,Rx,0,8,00,FE,FE,00,00,00,76,00,
3414454,00000386,false,Rx,0,6,02,15,AF,F4,B6,00,00,00,
3417955,000000FA,false,Rx,0,8,00,00,18,10,22,18,18,00,
3418973,000001BA,false,Rx,0,6,10,18,C0,4B,61,32,00,00,
3427981,000000FA,false,Rx,0,8,00,00,18,10,22,18,18,00,
3429015,00000201,false,Rx,0,8,00,FE,FE,00,00,00,77,00,
3429016,00000101,false,Rx,0,8,00,00,00,00,00,00,03,00,
3434538,00000102,false,Rx,0,3,00,00,00,00,00,00,00,00,
3437943,000000FA,false,Rx,0,8,00,00,18,10,22,18,18,00,
3438957,000001BA,false,Rx,0,6,10,18,C0,4B,61,32,00,00,
3447953,000000FA,false,Rx,0,8,00,00,18,10,22,18,18,00,
3448974,00000201,false,Rx,0,8,00,FE,FE,00,00,00,78,00,
3457955,000000FA,false,Rx,0,8,00,00,18,10,22,18,18,00,
3458991,000001BA,false,Rx,0,6,10,18,C0,4B,61,32,00,00,
3467385,00000711,false,Rx,0,8,04,03,F1,F1,06,70,00,22,
3468405,000000FA,false,Rx,0,8,00,00,18,10,22,18,18,00,
3469387,00000201,false,Rx,0,8,00,FE,FE,00,00,00,79,00,
3469389,00000101,false,Rx,0,8,00,00,00,00,00,00,03,00,
3475880,00000102,false,Rx,0,3,00,00,00,00,00,00,00,00,
3477934,000000FA,false,Rx,0,8,00,00,18,10,22,18,18,00,
3478928,000001BA,false,Rx,0,6,10,18,C0,4B,61,32,00,00,
3482293,0000077A,false,Rx,0,8,3F,00,61,20,1C,00,00,FF,
3487934,000000FA,false,Rx,0,8,00,00,18,10,22,18,18,00,
3488947,00000201,false,Rx,0,8,00,FE,FE,00,00,00,7A,00,
3494571,00000766,false,Rx,0,8,18,04,00,00,00,03,00,00,
3495589,0000069F,false,Rx,0,4,89,55,10,0F,00,00,00,00,
3497948,000000FA,false,Rx,0,8,00,00,18,10,22,18,18,00,
3498914,000001BA,false,Rx,0,6,10,18,C0,4B,61,32,00,00,
3503720,0000049A,false,Rx,0,7,00,AF,33,FA,DF,34,D0,00,
3507876,000000FA,false,Rx,0,8,00,00,18,10,22,18,18,00,
3508898,00000741,false,Rx,0,6,00,00,00,00,00,00,00,00,
3509919,00000201,false,Rx,0,8,00,FE,FE,00,00,00,7B,00,
3509920,00000101,false,Rx,0,8,00,00,00,00,00,00,03,00,
3514444,00000386,false,Rx,0,6,02,15,AF,F4,B6,00,00,00,
3517921,000000FA,false,Rx,0,8,00,00,18,10,22,18,18,00,
3518939,00000102,false,Rx,0,3,00,00,00,00,00,00,00,00,
3518940,000001BA,false,Rx,0,6,10,18,C0,4B,61,32,00,00,
3527896,000000FA,false,Rx,0,8,00,00,18,10,22,18,18,00,
3528906,00000201,false,Rx,0,8,00,FE,FE,00,00,00,7C,00,
3537889,000000FA,false,Rx,0,8,00,00,18,10,22,18,18,00,
3538905,000001BA,false,Rx,0,6,10,18,C0,4B,61,32,00,00,
3547878,000000FA,false,Rx,0,8,00,00,18,10,22,18,18,00,
3548914,00000201,false,Rx,0,8,00,FE,FE,00,00,00,7D,00,
3549904,00000101,false,Rx,0,8,00,00,00,00,00,00,03,00,
3557433,00000102,false,Rx,0,3,00,00,00,00,00,00,00,00,
3558442,000000FA,false,Rx,0,8,00,00,18,10,22,18,18,00,
3558443,000001BA,false,Rx,0,6,10,18,C0,4B,61,32,00,00,
3567839,000000FA,false,Rx,0,8,00,00,18,10,22,18,18,00,
3568886,00000201,false,Rx,0,8,00,FE,FE,00,00,00,7E,00,
3573907,00000711,false,Rx,0,8,04,03,F1,F1,06,70,00,22,
3577846,000000FA,false,Rx,0,8,00,00,18,10,22,18,18,00,
3578873,000001BA,false,Rx,0,6,10,18,C0,4B,61,32,00,00,
3582139,0000077A,false,Rx,0,8,3F,00,61,20,1C,00,00,FF,
3587839,000000FA,false,Rx,0,8,00,00,18,10,22,18,18,00,
3588831,00000201,false,Rx,0,8,00,FE,FE,00,00,00,7F,00,
3589857,00000101,false,Rx,0,8,00,00,00,00,00,00,03,00,
3594522,00000766,false,Rx,0,8,18,04,00,00,00,03,00,00,
3597917,000000FA,false,Rx,0,8,00,00,18,10,22,18,18,00,
3598931,000001BA,false,Rx,0,6,10,18,C0,4B,61,32,00,00,
3598939,00000102,false,Rx,0,3,00,00,00,00,00,00,00,00,
3603830,0000049A,false,Rx,0,7,00,AF,33,FA,DF,34,D0,00,
3607910,000000FA,false,Rx,0,8,00,00,18,10,22,18,18,00,
3608902,00000741,false,Rx,0,6,00,00,00,00,00,00,00,00,
3608903,00000201,false,Rx,0,8,00,FE,FE,00,00,00,80,00,
3614420,00000386,false,Rx,0,6,02,15,AF,F4,B6,00,00,00,
3617885,000000FA,false,Rx,0,8,00,00,18,10,22,18,18,00,
3618901,000001BA,false,Rx,0,6,10,18,C0,4B,61,32,00,00,
3627786,000000FA,false,Rx,0,8,00,00,18,10,22,18,18,00,
3628806,00000201,false,Rx,0,8,00,FE,FE,00,00,00,81,00,
3629810,00000101,false,Rx,0,8,00,00,00,00,00,00,03,00,
3637834,000000FA,false,Rx,0,8,00,00,18,10,22,18,18,00,
3638912,000001BA,false,Rx,0,6,10,18,C0,4B,61,32,00,00,
3639841,00000102,false,Rx,0,3,00,00,00,00,00,00,00,00,
3647870,000000FA,false,Rx,0,8,00,00,18,10,22,18,18,00,
3648887,00000201,false,Rx,0,8,00,FE,FE,00,00,00,82,00,
3657843,000000FA,false,Rx,0,8,00,00,18,10,22,18,18,00,
3658826,000001BA,false,Rx,0,6,10,18,C0,4B,61,32,00,00,
3667801,000000FA,false,Rx,0,8,00,00,18,10,22,18,18,00,
3668816,00000201,false,Rx,0,8,00,FE,FE,00,00,00,83,00,
3669815,00000101,false,Rx,0,8,00,00,00,00,00,00,03,00,
