Time Stamp,ID,Extended,Dir,Bus,LEN,D1,D2,D3,D4,D5,D6,D7,D8
1290000095,000001BA,false,Rx,0,6,10,43,C0,49,61,A7,00,00,
1290009045,000000FA,false,Rx,0,8,17,78,42,10,42,1A,1A,00,
1290011840,00000201,false,Rx,0,8,00,FE,FE,00,00,00,31,00,
1290012832,00000101,false,Rx,0,8,00,00,00,00,00,00,23,00,
1290017344,00000102,false,Rx,0,3,00,00,01,00,00,00,00,00,
1290018347,00000766,false,Rx,0,8,00,04,00,00,00,03,00,00,
1290019348,000000FA,false,Rx,0,8,17,78,42,10,42,1A,1A,00,
1290020377,000001BA,false,Rx,0,6,10,42,C0,49,61,A7,00,00,
1290029092,000000FA,false,Rx,0,8,17,78,42,10,42,1A,1A,00,
1290031723,00000741,false,Rx,0,6,00,00,00,00,00,40,00,00,
1290032741,00000201,false,Rx,0,8,00,FE,FE,00,00,00,32,00,
1290038201,00000386,false,Rx,0,6,02,EB,E6,78,80,00,00,00,
1290039189,000000FA,false,Rx,0,8,17,80,42,10,42,1A,1A,00,
1290040193,000001BA,false,Rx,0,6,10,42,C0,49,61,A7,00,00,
1290049202,000000FA,false,Rx,0,8,17,80,42,10,42,1A,1A,00,
1290051813,00000201,false,Rx,0,8,00,FE,FE,00,00,00,33,00,
1290052810,00000101,false,Rx,0,8,00,00,00,00,00,00,23,00,
1290058777,00000102,false,Rx,0,3,00,00,01,00,00,00,00,00,
1290059778,000000FA,false,Rx,0,8,17,88,42,10,42,1A,1A,00,
1290059779,000001BA,false,Rx,0,6,10,42,C0,49,61,A7,00,00,
1290060782,00000711,false,Rx,0,8,00,03,DE,94,06,74,00,25,
1290069010,000000FA,false,Rx,0,8,17,88,42,10,42,1A,1A,00,
1290071771,00000201,false,Rx,0,8,00,FE,FE,00,00,00,34,00,
1290079069,000000FA,false,Rx,0,8,17,88,42,10,42,1A,1A,00,
1290080039,000001BA,false,Rx,0,6,10,42,C0,49,61,A7,00,00,
1290084054,0000077A,false,Rx,0,8,4D,1E,5D,80,1E,00,00,FF,
1290085494,0000049A,false,Rx,0,7,00,45,84,86,98,61,DC,00,
1290089148,000000FA,false,Rx,0,8,17,88,42,10,42,1A,1A,00,
1290091774,00000201,false,Rx,0,8,00,FE,FE,00,00,00,35,00,
1290092793,00000101,false,Rx,0,8,00,00,00,00,00,00,23,00,
1290099012,000000FA,false,Rx,0,8,17,88,42,10,42,1A,1A,00,
1290100067,000001BA,false,Rx,0,6,10,42,C0,49,61,A7,00,00,
1290101268,00000102,false,Rx,0,3,00,00,01,00,00,00,00,00,
1290109032,000000FA,false,Rx,0,8,17,88,42,10,42,1A,1A,00,
1290111771,00000201,false,Rx,0,8,00,FE,FE,00,00,00,36,00,
1290118250,00000766,false,Rx,0,8,00,04,00,00,00,03,00,00,
1290119265,000000FA,false,Rx,0,8,17,80,42,10,42,1A,1A,00,
1290120267,000001BA,false,Rx,0,6,10,42,C0,49,61,A7,00,00,
1290129104,000000FA,false,Rx,0,8,17,80,42,10,42,1A,1A,00,
1290131766,00000741,false,Rx,0,6,00,00,00,00,00,40,00,00,
1290132725,00000201,false,Rx,0,8,00,FE,FE,00,00,00,37,00,
1290132726,00000101,false,Rx,0,8,00,00,00,00,00,00,23,00,
1290138166,00000386,false,Rx,0,6,02,EB,E6,78,80,00,00,00,
1290139189,000000FA,false,Rx,0,8,17,88,42,10,42,1A,1A,00,
1290140188,000001BA,false,Rx,0,6,10,42,C0,49,61,A7,00,00,
1290141208,00000102,false,Rx,0,3,00,00,01,00,00,00,00,00,
1290148991,000000FA,false,Rx,0,8,17,88,42,10,42,1A,1A,00,
1290151734,00000201,false,Rx,0,8,00,FE,FE,00,00,00,38,00,
1290159019,000000FA,false,Rx,0,8,17,80,42,10,42,1A,1A,00,
1290160003,000001BA,false,Rx,0,6,10,42,C0,49,61,A7,00,00,
1290164942,00000711,false,Rx,0,8,00,03,DE,94,06,74,00,25,
1290169095,000000FA,false,Rx,0,8,17,80,42,10,42,1A,1A,00,
1290171751,00000201,false,Rx,0,8,00,FE,FE,00,00,00,39,00,
1290172766,00000101,false,Rx,0,8,00,00,00,00,00,00,03,00,
1290178991,000000FA,false,Rx,0,8,17,78,42,10,42,1A,1A,00,
1290179981,000001BA,false,Rx,0,6,10,42,C0,49,61,A7,00,00,
1290181535,00000102,false,Rx,0,3,00,00,01,00,00,00,00,00,
1290184003,0000077A,false,Rx,0,8,4D,1E,5D,80,1E,00,00,FF,
1290185525,0000049A,false,Rx,0,7,00,45,84,86,98,61,DC,00,
1290189000,000000FA,false,Rx,0,8,17,78,42,10,42,1A,1A,00,
1290191761,00000201,false,Rx,0,8,00,FE,FE,00,00,00,3A,00,
1290198954,000000FA,false,Rx,0,8,17,78,42,10,42,1A,1A,00,
1290199950,000001BA,false,Rx,0,6,10,42,C0,49,61,A7,00,00,
1290209075,000000FA,false,Rx,0,8,17,78,42,10,42,1A,1A,00,
1290211794,00000201,false,Rx,0,8,00,FE,FE,00,00,00,3B,00,
1290212811,00000101,false,Rx,0,8,00,00,00,00,00,00,03,00,
1290218221,00000766,false,Rx,0,8,00,04,00,00,00,03,00,00,
1290219220,000000FA,false,Rx,0,8,17,80,42,10,42,1A,1A,00,
1290220273,000001BA,false,Rx,0,6,10,42,C0,49,61,A7,00,00,
1290223697,00000102,false,Rx,0,3,00,00,01,00,00,00,00,00,
1290228990,000000FA,false,Rx,0,8,17,80,42,10,42,1A,1A,00,
1290231723,00000741,false,Rx,0,6,00,00,00,00,00,00,00,00,
1290232744,00000201,false,Rx,0,8,00,FE,FE,00,00,00,3C,00,
1290238197,00000386,false,Rx,0,6,02,EB,E6,78,80,00,00,00,
1290239187,000000FA,false,Rx,0,8,17,80,42,10,42,1A,1A,00,
1290240195,000001BA,false,Rx,0,6,10,42,C0,49,61,A7,00,00,
1290249205,000000FA,false,Rx,0,8,17,80,42,10,42,1A,1A,00,
1290251760,00000201,false,Rx,0,8,00,FE,FE,00,00,00,3D,00,
1290252789,00000101,false,Rx,0,8,00,00,00,00,00,00,03,00,
1290258984,000000FA,false,Rx,0,8,17,80,42,10,42,1A,1A,00,
1290259946,000001BA,false,Rx,0,6,10,42,C0,49,61,A7,00,00,
1290263077,00000102,false,Rx,0,3,00,00,01,00,00,00,00,00,
1290268960,000000FA,false,Rx,0,8,17,80,42,10,02,1A,1A,00,
1290271747,00000201,false,Rx,0,8,00,FE,FE,00,00,00,3E,00,
1290272764,00000711,false,Rx,0,8,00,03,DE,94,06,74,00,25,
1290278944,000000FA,false,Rx,0,8,17,80,42,10,02,1A,1A,00,
1290279955,000001BA,false,Rx,0,6,10,42,C0,49,61,A7,00,00,
1290283910,0000077A,false,Rx,0,8,4D,1F,5D,80,1E,00,00,FF,
1290285441,0000049A,false,Rx,0,7,00,45,84,86,98,61,DC,00,
1290289046,000000FA,false,Rx,0,8,17,80,42,10,02,1A,1A,00,
1290291790,00000201,false,Rx,0,8,00,FE,FE,00,00,00,3F,00,
1290292792,00000101,false,Rx,0,8,00,00,00,00,00,00,03,00,
1290298942,000000FA,false,Rx,0,8,17,80,42,10,02,1A,1A,00,
1290299949,000001BA,false,Rx,0,6,10,42,C0,49,61,A7,00,00,
1290304381,00000102,false,Rx,0,3,00,00,01,00,00,00,00,00,
1290308946,000000FA,false,Rx,0,8,17,80,42,10,02,1A,1A,00,
1290311792,00000201,false,Rx,0,8,00,FE,FE,00,00,00,40,00,
1290318271,00000766,false,Rx,0,8,00,04,00,00,00,03,00,00,
1290319288,000000FA,false,Rx,0,8,17,80,42,10,02,1A,1A,00,
1290320293,000001BA,false,Rx,0,6,10,42,C0,49,61,A7,00,00,
1290329009,000000FA,false,Rx,0,8,17,80,42,10,02,1A,1A,00,
1290331722,00000741,false,Rx,0,6,00,00,00,00,00,00,00,00,
1290332746,00000201,false,Rx,0,8,00,FE,FE,00,00,00,41,00,
1290332746,00000101,false,Rx,0,8,00,00,00,00,00,00,03,00,
1290338167,00000386,false,Rx,0,6,02,EB,E6,78,80,00,00,00,
1290339161,000000FA,false,Rx,0,8,17,78,42,10,02,1A,1A,00,
1290340167,000001BA,false,Rx,0,6,10,42,C0,49,61,A7,00,00,
1290346383,00000102,false,Rx,0,3,00,00,00,00,00,00,00,00,
1290348891,000000FA,false,Rx,0,8,17,78,42,10,02,1A,1A,00,
1290351745,00000201,false,Rx,0,8,00,FE,FE,00,00,00,42,00,
1290358941,000000FA,false,Rx,0,8,17,78,42,10,02,1A,1A,00,
1290359948,000001BA,false,Rx,0,6,10,42,C0,49,61,A7,00,00,
1290368966,000000FA,false,Rx,0,8,17,78,42,10,02,1A,1A,00,
1290371774,00000201,false,Rx,0,8,00,FE,FE,00,00,00,43,00,
1290372769,00000101,false,Rx,0,8,00,00,00,00,00,00,03,00,
1290378890,000000FA,false,Rx,0,8,17,80,42,10,02,1A,1A,00,
1290379959,000001BA,false,Rx,0,6,10,42,C0,49,61,A7,00,00,
1290379960,00000711,false,Rx,0,8,00,03,DE,94,06,74,00,25,
1290383945,0000077A,false,Rx,0,8,4D,1F,5D,80,1E,00,00,FF,
1290385441,0000049A,false,Rx,0,7,00,45,84,86,98,61,DC,00,
1290386402,00000102,false,Rx,0,3,00,00,00,00,00,00,00,00,
1290388916,000000FA,false,Rx,0,8,17,80,42,10,02,1A,1A,00,
1290391742,00000201,false,Rx,0,8,00,FE,FE,00,00,00,44,00,
1290398853,000000FA,false,Rx,0,8,17,88,42,10,02,1A,1A,00,
1290399869,000001BA,false,Rx,0,6,10,42,C0,49,61,A7,00,00,
1290409008,000000FA,false,Rx,0,8,17,88,42,10,02,1A,1A,00,
1290411771,00000201,false,Rx,0,8,00,FE,FE,00,00,00,45,00,
1290412763,00000101,false,Rx,0,8,00,00,00,00,00,00,03,00,
1290418245,00000766,false,Rx,0,8,00,04,00,00,00,03,00,00,
1290419242,0000069F,false,Rx,0,4,89,55,10,0F,00,00,00,00,
1290419243,000000FA,false,Rx,0,8,17,88,42,10,02,1A,1A,00,
1290420266,000001BA,false,Rx,0,6,10,42,C0,49,61,A7,00,00,
1290427899,00000102,false,Rx,0,3,00,00,00,00,00,00,00,00,
1290428887,000000FA,false,Rx,0,8,17,88,42,10,02,1A,1A,00,
1290431691,00000741,false,Rx,0,6,00,00,00,00,00,00,00,00,
1290432686,00000201,false,Rx,0,8,00,FE,FE,00,00,00,46,00,
1290438149,00000386,false,Rx,0,6,02,EB,E6,78,80,00,00,00,
1290439139,000000FA,false,Rx,0,8,17,80,42,10,02,1A,1A,00,
1290440138,000001BA,false,Rx,0,6,10,42,C0,49,61,A7,00,00,
1290448915,000000FA,false,Rx,0,8,17,80,42,10,02,1A,1A,00,
1290451766,00000201,false,Rx,0,8,00,FE,FE,00,00,00,47,00,
1290452763,00000101,false,Rx,0,8,00,00,00,00,00,00,03,00,
1290458883,000000FA,false,Rx,0,8,17,80,42,10,02,1A,1A,00,
1290459815,000001BA,false,Rx,0,6,10,42,C0,49,61,A7,00,00,
1290467942,00000102,false,Rx,0,3,00,00,00,00,00,00,00,00,
1290468952,000000FA,false,Rx,0,8,17,80,42,10,02,1A,1A,00,
1290471736,00000201,false,Rx,0,8,00,FE,FE,00,00,00,48,00,
1290478856,000000FA,false,Rx,0,8,17,80,42,10,02,1A,1A,00,
1290479869,000001BA,false,Rx,0,6,10,42,C0,49,61,A7,00,00,
1290483850,0000077A,false,Rx,0,8,4D,20,5D,80,1E,00,00,FF,
1290484873,00000711,false,Rx,0,8,00,03,DE,94,06,74,00,25,
1290485892,0000049A,false,Rx,0,7,00,45,84,86,98,61,DC,00,
1290488875,000000FA,false,Rx,0,8,17,80,42,10,02,1A,1A,00,
1290491765,00000201,false,Rx,0,8,00,FE,FE,00,00,00,49,00,
1290492772,00000101,false,Rx,0,8,00,00,00,00,00,00,03,00,
1290498863,000000FA,false,Rx,0,8,17,78,42,10,02,1A,1A,00,
1290499858,000001BA,false,Rx,0,6,10,42,C0,49,61,A7,00,00,
1290508848,000000FA,false,Rx,0,8,17,78,42,10,02,1A,1A,00,
1290509855,00000102,false,Rx,0,3,00,00,00,00,00,00,00,00,
1290511767,00000201,false,Rx,0,8,00,FE,FE,00,00,00,4A,00,
1290518200,00000766,false,Rx,0,8,00,04,00,00,00,03,00,00,
1290519255,000000FA,false,Rx,0,8,17,78,42,10,02,1A,1A,00,
1290519256,000001BA,false,Rx,0,6,10,42,C0,49,61,A7,00,00,
1290528776,000000FA,false,Rx,0,8,17,78,42,10,02,1A,1A,00,
1290531715,00000741,false,Rx,0,6,00,00,00,00,00,00,00,00,
1290532733,00000201,false,Rx,0,8,00,FE,FE,00,00,00,4B,00,
1290532734,00000101,false,Rx,0,8,00,00,00,00,00,00,03,00,
1290538136,00000386,false,Rx,0,6,02,EB,E6,78,80,00,00,00,
1290539174,000000FA,false,Rx,0,8,17,80,42,10,02,1A,1A,00,
1290540152,000001BA,false,Rx,0,6,10,42,C0,49,61,A7,00,00,
1290548810,000000FA,false,Rx,0,8,17,80,42,10,02,1A,1A,00,
1290550485,00000102,false,Rx,0,3,00,00,00,00,00,00,00,00,
1290551749,00000201,false,Rx,0,8,00,FE,FE,00,00,00,4C,00,
1290558806,000000FA,false,Rx,0,8,17,80,42,10,02,1A,1A,00,
1290559806,000001BA,false,Rx,0,6,10,42,C0,49,61,A7,00,00,
1290568760,000000FA,false,Rx,0,8,17,80,42,10,02,1A,1A,00,
1290571739,00000201,false,Rx,0,8,00,FE,FE,00,00,00,4D,00,
1290572758,00000101,false,Rx,0,8,00,00,00,00,00,00,03,00,
1290578813,000000FA,false,Rx,0,8,17,88,42,10,02,1A,1A,00,
1290579834,000001BA,false,Rx,0,6,10,42,C0,49,61,A7,00,00,
1290583780,0000077A,false,Rx,0,8,4D,20,5D,80,1E,00,00,FF,
1290585236,0000049A,false,Rx,0,7,00,45,84,86,98,61,DC,00,
1290588796,000000FA,false,Rx,0,8,17,88,42,10,02,1A,1A,00,
1290591717,00000201,false,Rx,0,8,00,FE,FE,00,00,00,4E,00,
1290592726,00000102,false,Rx,0,3,00,00,00,00,00,00,00,00,
1290593725,00000711,false,Rx,0,8,00,03,DE,94,06,74,00,25,
1290598780,000000FA,false,Rx,0,8,17,80,42,10,02,1A,1A,00,
1290599796,000001BA,false,Rx,0,6,10,42,C0,49,61,A7,00,00,
1290608746,000000FA,false,Rx,0,8,17,80,42,10,02,1A,1A,00,
1290611760,00000201,false,Rx,0,8,00,FE,FE,00,00,00,4F,00,
1290612784,00000101,false,Rx,0,8,00,00,00,00,00,00,03,00,
1290618205,00000766,false,Rx,0,8,00,04,00,00,00,03,00,00,
1290619198,000000FA,false,Rx,0,8,17,88,42,10,02,1A,1A,00,
1290619200,000001BA,false,Rx,0,6,10,42,C0,49,61,A7,00,00,
1290628776,000000FA,false,Rx,0,8,17,88,42,10,02,1A,1A,00,
1290631664,00000741,false,Rx,0,6,00,00,00,00,00,00,00,00,
1290632676,00000201,false,Rx,0,8,00,FE,FE,00,00,00,50,00,
1290632677,00000102,false,Rx,0,3,00,00,00,00,00,00,00,00,
1290638108,00000386,false,Rx,0,6,02,EB,E6,78,80,00,00,00,
1290639140,000000FA,false,Rx,0,8,17,88,42,10,02,1A,1A,00,
1290640119,000001BA,false,Rx,0,6,10,42,C0,49,61,A7,00,00,
1290648717,000000FA,false,Rx,0,8,17,88,42,10,02,1A,1A,00,
1290651776,00000201,false,Rx,0,8,00,FE,FE,00,00,00,51,00,
1290652771,00000101,false,Rx,0,8,00,00,00,00,00,00,03,00,
1290658734,000000FA,false,Rx,0,8,17,80,42,10,02,1A,1A,00,
1290659757,000001BA,false,Rx,0,6,10,42,C0,49,61,A7,00,00,
1290668733,000000FA,false,Rx,0,8,17,80,42,10,02,1A,1A,00,
1290671733,00000201,false,Rx,0,8,00,FE,FE,00,00,00,52,00,
1290672721,00000102,false,Rx,0,3,00,00,00,00,00,00,00,00,
1290678768,000000FA,false,Rx,0,8,17,80,42,10,02,1A,1A,00,
1290679788,000001BA,false,Rx,0,6,10,42,C0,49,61,A7,00,00,
1290683723,0000077A,false,Rx,0,8,4D,21,5D,80,1E,00,00,FF,
1290685197,0000049A,false,Rx,0,7,00,45,84,86,98,61,DC,00,
1290688673,000000FA,false,Rx,0,8,17,80,42,10,02,1A,1A,00,
1290691772,00000201,false,Rx,0,8,00,FE,FE,00,00,00,53,00,
1290692772,00000101,false,Rx,0,8,00,00,00,00,00,00,03,00,
1290697542,00000711,false,Rx,0,8,00,03,DE,94,06,74,00,25,
1290698770,000000FA,false,Rx,0,8,17,80,42,10,02,1A,1A,00,
1290699758,000001BA,false,Rx,0,6,10,42,C0,49,61,A7,00,00,
1290708741,000000FA,false,Rx,0,8,17,80,42,10,02,1A,1A,00,
1290711705,00000201,false,Rx,0,8,00,FE,FE,00,00,00,54,00,
1290714188,00000102,false,Rx,0,3,00,00,00,00,00,00,00,00,
1290718227,00000766,false,Rx,0,8,00,04,00,00,00,03,00,00,
1290719254,000000FA,false,Rx,0,8,17,80,42,10,02,1A,1A,00,
1290719255,000001BA,false,Rx,0,6,10,42,C0,49,61,A7,00,00,
1290728678,000000FA,false,Rx,0,8,17,80,42,10,02,1A,1A,00,
1290731675,00000741,false,Rx,0,6,00,00,00,00,00,00,00,00,
1290732699,00000201,false,Rx,0,8,00,FE,FE,00,00,00,55,00,
1290732700,00000101,false,Rx,0,8,00,00,00,00,00,00,03,00,
1290738081,00000386,false,Rx,0,6,02,EB,E6,78,80,00,00,00,
1290739110,000000FA,false,Rx,0,8,17,78,42,10,02,1A,1A,00,
1290739111,000001BA,false,Rx,0,6,10,42,C0,49,61,A7,00,00,
1290748710,000000FA,false,Rx,0,8,17,78,42,10,02,1A,1A,00,
1290751733,00000201,false,Rx,0,8,00,FE,FE,00,00,00,56,00,
1290756038,00000102,false,Rx,0,3,00,00,00,00,00,00,00,00,
1290758714,000000FA,false,Rx,0,8,17,78,42,10,02,1A,1A,00,
1290759698,000001BA,false,Rx,0,6,10,42,C0,49,61,A7,00,00,
1290768660,000000FA,false,Rx,0,8,17,78,42,10,02,1A,1A,00,
1290771740,00000201,false,Rx,0,8,00,FE,FE,00,00,00,57,00,
1290772733,00000101,false,Rx,0,8,00,00,00,00,00,00,03,00,
1290778764,000000FA,false,Rx,0,8,17,78,42,10,02,1A,1A,00,
1290779766,000001BA,false,Rx,0,6,10,42,C0,49,61,A7,00,00,
1290783714,0000077A,false,Rx,0,8,4D,21,5D,80,1E,00,00,FF,
1290785210,0000049A,false,Rx,0,7,00,45,84,86,98,61,DC,00,
1290788671,000000FA,false,Rx,0,8,17,78,42,10,02,1A,1A,00,
1290791710,00000201,false,Rx,0,8,00,FE,FE,00,00,00,58,00,
1290796395,00000102,false,Rx,0,3,00,00,00,00,00,00,00,00,
1290798723,000000FA,false,Rx,0,8,17,78,42,10,02,1A,1A,00,
1290799719,000001BA,false,Rx,0,6,10,42,C0,49,61,A7,00,00,
1290804361,00000711,false,Rx,0,8,00,03,DE,94,06,74,00,25,
1290808637,000000FA,false,Rx,0,8,17,78,42,10,02,1A,1A,00,
1290811726,00000201,false,Rx,0,8,00,FE,FE,00,00,00,59,00,
1290812745,00000101,false,Rx,0,8,00,00,00,00,00,00,03,00,
1290818174,00000766,false,Rx,0,8,00,04,00,00,00,03,00,00,
1290819178,000000FA,false,Rx,0,8,17,78,42,10,02,1A,1A,00,
1290819180,000001BA,false,Rx,0,6,10,42,C0,49,61,A7,00,00,
1290828673,000000FA,false,Rx,0,8,17,78,42,10,02,1A,1A,00,
1290831647,00000741,false,Rx,0,6,00,00,00,00,00,00,00,00,
1290832667,00000201,false,Rx,0,8,00,FE,FE,00,00,00,5A,00,
1290836443,00000102,false,Rx,0,3,00,00,00,00,00,00,00,00,
1290838112,00000386,false,Rx,0,6,02,EB,E6,78,80,00,00,00,
1290839133,000000FA,false,Rx,0,8,17,78,42,10,02,1A,1A,00,
1290839134,000001BA,false,Rx,0,6,10,42,C0,49,61,A7,00,00,
1290848623,000000FA,false,Rx,0,8,17,78,42,10,02,1A,1A,00,
1290851741,00000201,false,Rx,0,8,00,FE,FE,00,00,00,5B,00,
1290852769,00000101,false,Rx,0,8,00,00,00,00,00,00,03,00,
1290858649,000000FA,false,Rx,0,8,17,78,42,10,02,1A,1A,00,
1290859673,000001BA,false,Rx,0,6,10,42,C0,49,61,A7,00,00,
1290868609,000000FA,false,Rx,0,8,17,78,42,10,02,1A,1A,00,
1290871738,00000201,false,Rx,0,8,00,FE,FE,00,00,00,5C,00,
1290878678,000000FA,false,Rx,0,8,17,78,42,10,02,1A,1A,00,
1290879711,000001BA,false,Rx,0,6,10,42,C0,49,61,A7,00,00,
1290879712,00000102,false,Rx,0,3,00,00,00,00,00,00,00,00,
1290883633,0000077A,false,Rx,0,8,4D,22,5D,80,1E,00,00,FF,
1290885209,0000049A,false,Rx,0,7,00,45,84,86,98,61,DC,00,
1290888607,000000FA,false,Rx,0,8,17,78,42,10,02,1A,1A,00,
1290891740,00000201,false,Rx,0,8,00,FE,FE,00,00,00,5D,00,
1290892766,00000101,false,Rx,0,8,00,00,00,00,00,00,03,00,
1290898618,000000FA,false,Rx,0,8,17,78,42,10,02,1A,1A,00,
1290899644,000001BA,false,Rx,0,6,10,42,C0,49,61,A7,00,00,
1290908606,000000FA,false,Rx,0,8,17,78,42,10,02,1A,1A,00,
1290910702,00000711,false,Rx,0,8,00,03,DE,94,06,74,00,25,
1290911729,00000201,false,Rx,0,8,00,FE,FE,00,00,00,5E,00,
1290918228,00000766,false,Rx,0,8,00,04,00,00,00,03,00,00,
1290919163,000000FA,false,Rx,0,8,17,78,42,10,02,1A,1A,00,
1290919165,000001BA,false,Rx,0,6,10,42,C0,49,61,A7,00,00,
1290920217,00000102,false,Rx,0,3,00,00,00,00,00,00,00,00,
1290928587,000000FA,false,Rx,0,8,17,78,42,10,02,1A,1A,00,
1290931683,00000741,false,Rx,0,6,00,00,00,00,00,00,00,00,
1290932689,00000201,false,Rx,0,8,00,FE,FE,00,00,00,5F,00,
1290932690,00000101,false,Rx,0,8,00,00,00,00,00,00,03,00,
1290938092,00000386,false,Rx,0,6,02,EB,E6,78,80,00,00,00,
1290939086,000000FA,false,Rx,0,8,17,78,42,10,02,1A,1A,00,
1290939087,000001BA,false,Rx,0,6,10,42,C0,49,61,A7,00,00,
1290948592,000000FA,false,Rx,0,8,17,78,42,10,02,1A,1A,00,
1290951742,00000201,false,Rx,0,8,00,FE,FE,00,00,00,60,00,
1290958611,000000FA,false,Rx,0,8,17,78,42,10,02,1A,1A,00,
1290959637,000001BA,false,Rx,0,6,10,42,C0,49,61,A7,00,00,
1290960647,00000102,false,Rx,0,3,00,00,00,00,00,00,00,00,
1290968570,000000FA,false,Rx,0,8,17,78,42,10,02,1A,1A,00,
1290971725,00000201,false,Rx,0,8,00,FE,FE,00,00,00,61,00,
1290972746,00000101,false,Rx,0,8,00,00,00,00,00,00,03,00,
1290978659,000000FA,false,Rx,0,8,17,78,42,10,02,1A,1A,00,
1290979663,000001BA,false,Rx,0,6,10,42,C0,49,61,A7,00,00,
1290983637,0000077A,false,Rx,0,8,4D,22,5D,80,1E,00,00,FF,
1290985079,0000049A,false,Rx,0,7,00,45,84,86,98,61,DC,00,
1290988586,000000FA,false,Rx,0,8,17,78,42,10,02,1A,1A,00,
1290991690,00000201,false,Rx,0,8,00,FE,FE,00,00,00,62,00,
1290998553,000000FA,false,Rx,0,8,17,78,42,10,02,1A,1A,00,
1290999557,000001BA,false,Rx,0,6,10,42,C0,49,61,A7,00,00,
1291002117,00000102,false,Rx,0,3,00,00,00,00,00,00,00,00,
1291008546,000000FA,false,Rx,0,8,17,78,42,10,02,1A,1A,00,
1291011715,00000201,false,Rx,0,8,00,FE,FE,00,00,00,63,00,
1291012729,00000101,false,Rx,0,8,00,00,00,00,00,00,03,00,
1291017164,00000711,false,Rx,0,8,00,03,DE,94,06,74,00,25,
1291018158,00000766,false,Rx,0,8,00,04,00,00,00,03,00,00,
1291019156,000000FA,false,Rx,0,8,17,78,42,10,02,1A,1A,00,
1291019156,000001BA,false,Rx,0,6,10,42,C0,49,61,A7,00,00,
1291028533,000000FA,false,Rx,0,8,17,78,42,10,02,1A,1A,00,
1291031624,00000741,false,Rx,0,6,00,00,00,00,00,00,00,00,
1291032648,00000201,false,Rx,0,8,00,FE,FE,00,00,00,64,00,
1291038082,00000386,false,Rx,0,6,02,EB,E6,78,80,00,00,00,
1291039044,000000FA,false,Rx,0,8,17,78,42,10,02,1A,1A,00,
1291039045,000001BA,false,Rx,0,6,10,42,C0,49,61,A7,00,00,
1291041425,00000102,false,Rx,0,3,00,00,00,00,00,00,00,00,
1291048525,000000FA,false,Rx,0,8,17,78,42,10,02,1A,1A,00,
1291051658,00000201,false,Rx,0,8,00,FE,FE,00,00,00,65,00,
1291052692,00000101,false,Rx,0,8,00,00,00,00,00,00,03,00,
1291058544,000000FA,false,Rx,0,8,17,78,42,10,02,1A,1A,00,
1291059555,000001BA,false,Rx,0,6,10,42,C0,49,61,A7,00,00,
1291068550,000000FA,false,Rx,0,8,17,78,42,10,02,1A,1A,00,
1291071669,00000201,false,Rx,0,8,00,FE,FE,00,00,00,66,00,
1291078544,000000FA,false,Rx,0,8,17,70,42,10,02,1A,1A,00,
1291079553,000001BA,false,Rx,0,6,10,42,C0,49,61,A7,00,00,
1291082883,00000102,false,Rx,0,3,00,00,00,00,00,00,00,00,
1291083905,0000077A,false,Rx,0,8,4D,23,5D,80,1E,00,00,FF,
1291085013,0000049A,false,Rx,0,7,00,45,84,86,98,61,DC,00,
1291088468,000000FA,false,Rx,0,8,17,70,42,10,02,1A,1A,00,
1291091695,00000201,false,Rx,0,8,00,FE,FE,00,00,00,67,00,
1291092693,00000101,false,Rx,0,8,00,00,00,00,00,00,03,00,
1291098532,000000FA,false,Rx,0,8,17,78,42,10,02,1A,1A,00,
1291099546,000001BA,false,Rx,0,6,10,42,C0,49,61,A7,00,00,
1291108515,000000FA,false,Rx,0,8,17,78,42,10,02,1A,1A,00,
1291111637,00000201,false,Rx,0,8,00,FE,FE,00,00,00,68,00,
1291118115,00000766,false,Rx,0,8,00,04,00,00,00,03,00,00,
1291119144,000000FA,false,Rx,0,8,17,78,42,10,02,1A,1A,00,
1291119144,000001BA,false,Rx,0,6,10,42,C0,49,61,A7,00,00,
1291124869,00000102,false,Rx,0,3,00,00,00,00,00,00,00,00,
1291126238,00000711,false,Rx,0,8,00,03,DE,94,06,74,00,25,
1291128453,000000FA,false,Rx,0,8,17,78,42,10,02,1A,1A,00,
1291131634,00000741,false,Rx,0,6,00,00,00,00,00,00,00,00,
1291132616,00000201,false,Rx,0,8,00,FE,FE,00,00,00,69,00,
1291132617,00000101,false,Rx,0,8,00,00,00,00,00,00,03,00,
1291138072,00000386,false,Rx,0,6,02,EB,E6,78,80,00,00,00,
1291139073,000000FA,false,Rx,0,8,17,68,42,10,02,1A,1A,00,
1291139074,000001BA,false,Rx,0,6,10,42,C0,49,61,A7,00,00,
1291148483,000000FA,false,Rx,0,8,17,68,42,10,02,1A,1A,00,
1291151679,00000201,false,Rx,0,8,00,FE,FE,00,00,00,6A,00,
1291158413,000000FA,false,Rx,0,8,17,68,42,10,02,1A,1A,00,
1291159404,000001BA,false,Rx,0,6,10,42,C0,49,61,A7,00,00,
1291165652,00000102,false,Rx,0,3,00,00,00,00,00,00,00,00,
1291168461,000000FA,false,Rx,0,8,17,68,42,10,02,1A,1A,00,
1291171715,00000201,false,Rx,0,8,00,FE,FE,00,00,00,6B,00,
1291172736,00000101,false,Rx,0,8,00,00,00,00,00,00,03,00,
1291178472,000000FA,false,Rx,0,8,17,70,42,10,02,1A,1A,00,
1291179483,000001BA,false,Rx,0,6,10,42,C0,49,61,A7,00,00,
1291183432,0000077A,false,Rx,0,8,4D,23,5D,80,1E,00,00,FF,
1291184885,0000049A,false,Rx,0,7,00,45,84,86,98,61,DC,00,
1291188468,000000FA,false,Rx,0,8,17,70,42,10,02,1A,1A,00,
1291191671,00000201,false,Rx,0,8,00,FE,FE,00,00,00,6C,00,
1291198421,000000FA,false,Rx,0,8,17,70,42,10,02,1A,1A,00,
1291199407,000001BA,false,Rx,0,6,10,42,C0,49,61,A7,00,00,
1291205450,00000102,false,Rx,0,3,00,00,00,00,00,00,00,00,
1291208400,000000FA,false,Rx,0,8,17,70,42,10,02,1A,1A,00,
1291211710,00000201,false,Rx,0,8,00,FE,FE,00,00,00,6D,00,
1291212726,00000101,false,Rx,0,8,00,00,00,00,00,00,03,00,
1291218155,00000766,false,Rx,0,8,00,04,00,00,00,03,00,00,
1291219151,000000FA,false,Rx,0,8,17,68,42,10,02,1A,1A,00,
1291219151,000001BA,false,Rx,0,6,10,42,C0,49,61,A7,00,00,
1291228422,000000FA,false,Rx,0,8,17,68,42,10,02,1A,1A,00,
1291229895,00000711,false,Rx,0,8,00,03,DE,94,06,74,00,25,
1291231583,00000741,false,Rx,0,6,00,00,00,00,00,00,00,00,
1291232609,00000201,false,Rx,0,8,00,FE,FE,00,00,00,6E,00,
1291238017,00000386,false,Rx,0,6,02,EB,E6,78,80,00,00,00,
1291239012,000000FA,false,Rx,0,8,17,68,42,10,02,1A,1A,00,
1291239012,000001BA,false,Rx,0,6,10,42,C0,49,61,A7,00,00,
1291246138,00000102,false,Rx,0,3,00,00,00,00,00,00,00,00,
1291248353,000000FA,false,Rx,0,8,17,68,42,10,02,1A,1A,00,
1291251630,00000201,false,Rx,0,8,00,FE,FE,00,00,00,6F,00,
1291252652,00000101,false,Rx,0,8,00,00,00,00,00,00,03,00,
1291258435,000000FA,false,Rx,0,8,17,68,42,10,02,1A,1A,00,
1291259469,000001BA,false,Rx,0,6,10,42,C0,49,61,A7,00,00,
1291268366,000000FA,false,Rx,0,8,17,68,42,10,02,1A,1A,00,
1291271670,00000201,false,Rx,0,8,00,FE,FE,00,00,00,70,00,
1291278456,000000FA,false,Rx,0,8,17,70,42,10,02,1A,1A,00,
1291279428,000001BA,false,Rx,0,6,10,42,C0,49,61,A7,00,00,
1291283351,0000077A,false,Rx,0,8,4D,24,5D,80,1E,00,00,FF,
1291284924,0000049A,false,Rx,0,7,00,45,84,86,98,61,DC,00,
1291287090,00000102,false,Rx,0,3,00,00,00,00,00,00,00,00,
1291288318,000000FA,false,Rx,0,8,17,70,42,10,02,1A,1A,00,
1291291695,00000201,false,Rx,0,8,00,FE,FE,00,00,00,71,00,
1291292665,00000101,false,Rx,0,8,00,00,00,00,00,00,03,00,
1291298374,000000FA,false,Rx,0,8,17,70,42,10,02,1A,1A,00,
1291299396,000001BA,false,Rx,0,6,10,42,C0,49,61,A7,00,00,
1291308402,000000FA,false,Rx,0,8,17,70,42,10,02,1A,1A,00,
1291311685,00000201,false,Rx,0,8,00,FE,FE,00,00,00,72,00,
1291318122,00000766,false,Rx,0,8,00,04,00,00,00,03,00,00,
1291319121,000000FA,false,Rx,0,8,17,78,42,10,02,1A,1A,00,
1291319121,000001BA,false,Rx,0,6,10,42,C0,49,61,A7,00,00,
1291328333,000000FA,false,Rx,0,8,17,78,42,10,02,1A,1A,00,
1291329352,00000102,false,Rx,0,3,00,00,00,00,00,00,00,00,
1291331642,00000741,false,Rx,0,6,00,00,00,00,00,00,00,00,
1291332642,00000201,false,Rx,0,8,00,FE,FE,00,00,00,73,00,
1291332643,00000101,false,Rx,0,8,00,00,00,00,00,00,03,00,
1291338034,00000386,false,Rx,0,6,02,EB,E6,78,80,00,00,00,
1291339005,000000FA,false,Rx,0,8,17,80,42,10,02,1A,1A,00,
1291339006,00000711,false,Rx,0,8,00,03,DE,94,06,74,00,25,
1291340031,000001BA,false,Rx,0,6,10,42,C0,49,61,A7,00,00,
1291348425,000000FA,false,Rx,0,8,17,80,42,10,02,1A,1A,00,
1291351644,00000201,false,Rx,0,8,00,FE,FE,00,00,00,74,00,
1291358408,000000FA,false,Rx,0,8,17,88,42,10,02,1A,1A,00,
1291359395,000001BA,false,Rx,0,6,10,42,C0,49,61,A7,00,00,
1291368328,000000FA,false,Rx,0,8,17,88,42,10,02,1A,1A,00,
1291369688,00000102,false,Rx,0,3,00,00,00,00,00,00,00,00,
1291371668,00000201,false,Rx,0,8,00,FE,FE,00,00,00,75,00,
1291372695,00000101,false,Rx,0,8,00,00,00,00,00,00,03,00,
1291378399,000000FA,false,Rx,0,8,17,90,42,10,02,1A,1A,00,
1291379393,000001BA,false,Rx,0,6,10,42,C0,49,61,A7,00,00,
1291383368,0000077A,false,Rx,0,8,4D,24,5D,80,1E,00,00,FF,
1291384869,0000049A,false,Rx,0,7,00,45,84,86,98,61,DC,00,
1291388376,000000FA,false,Rx,0,8,17,90,41,10,02,1A,1A,00,
1291391652,00000201,false,Rx,0,8,00,FE,FE,00,00,00,76,00,
1291398295,000000FA,false,Rx,0,8,17,90,41,10,02,1A,1A,00,
1291399352,000001BA,false,Rx,0,6,10,41,C0,49,61,A7,00,00,
1291408315,000000FA,false,Rx,0,8,17,90,41,10,02,1A,1A,00,
1291410039,00000102,false,Rx,0,3,00,00,00,00,00,00,00,00,
1291411669,00000201,false,Rx,0,8,00,FE,FE,00,00,00,77,00,
1291412688,00000101,false,Rx,0,8,00,00,00,00,00,00,03,00,
1291418168,00000766,false,Rx,0,8,00,04,00,00,00,03,00,00,
1291419159,000000FA,false,Rx,0,8,17,90,41,10,02,1A,1A,00,
1291419160,0000069F,false,Rx,0,4,89,55,10,0F,00,00,00,00,
1291420189,000001BA,false,Rx,0,6,10,41,C0,49,61,A7,00,00,
1291428348,000000FA,false,Rx,0,8,17,90,41,10,02,1A,1A,00,
1291431578,00000741,false,Rx,0,6,00,00,00,00,00,00,00,00,
1291432601,00000201,false,Rx,0,8,00,FE,FE,00,00,00,78,00,
1291438006,00000386,false,Rx,0,6,02,EB,E6,78,80,00,00,00,
1291439038,000000FA,false,Rx,0,8,17,90,41,10,02,1A,1A,00,
1291439039,000001BA,false,Rx,0,6,10,41,C0,49,61,A7,00,00,
1291445545,00000711,false,Rx,0,8,00,03,DE,94,06,74,00,25,
1291448270,000000FA,false,Rx,0,8,17,90,41,10,02,1A,1A,00,
1291450815,00000102,false,Rx,0,3,00,00,00,00,00,00,00,00,
1291451847,00000201,false,Rx,0,8,00,FE,FE,00,00,00,79,00,
1291452871,00000101,false,Rx,0,8,00,00,00,00,00,00,03,00,
1291458341,000000FA,false,Rx,0,8,17,88,41,10,02,1A,1A,00,
1291459306,000001BA,false,Rx,0,6,10,41,C0,49,61,A7,00,00,
1291468317,000000FA,false,Rx,0,8,17,88,41,10,02,1A,1A,00,
1291471577,00000201,false,Rx,0,8,00,FE,FE,00,00,00,7A,00,
1291478351,000000FA,false,Rx,0,8,17,88,41,10,02,1A,1A,00,
1291479325,000001BA,false,Rx,0,6,10,41,C0,49,61,A7,00,00,
1291483247,0000077A,false,Rx,0,8,4D,25,5D,80,1E,00,00,FF,
1291484946,0000049A,false,Rx,0,7,00,45,84,86,98,61,DC,00,
1291488272,000000FA,false,Rx,0,8,17,88,41,10,02,1A,1A,00,
1291491700,00000201,false,Rx,0,8,00,FE,FE,00,00,00,7B,00,
1291492695,00000101,false,Rx,0,8,00,00,00,00,00,00,03,00,
1291492696,00000102,false,Rx,0,3,00,00,00,00,00,00,00,00,
1291498294,000000FA,false,Rx,0,8,17,90,41,10,02,1A,1A,00,
1291499314,000001BA,false,Rx,0,6,10,41,C0,49,61,A7,00,00,
1291508298,000000FA,false,Rx,0,8,17,90,41,10,02,1A,1A,00,
1291511646,00000201,false,Rx,0,8,00,FE,FE,00,00,00,7C,00,
1291518108,00000766,false,Rx,0,8,00,04,00,00,00,03,00,00,
1291519100,000000FA,false,Rx,0,8,17,90,41,10,02,1A,1A,00,
1291519101,000001BA,false,Rx,0,6,10,41,C0,49,61,A7,00,00,
1291528278,000000FA,false,Rx,0,8,17,90,41,10,02,1A,1A,00,
1291531628,00000741,false,Rx,0,6,00,00,00,00,00,00,00,00,
1291532622,00000201,false,Rx,0,8,00,FE,FE,00,00,00,7D,00,
1291532622,00000101,false,Rx,0,8,00,00,00,00,00,00,03,00,
1291533654,00000102,false,Rx,0,3,00,00,00,00,00,00,00,00,
1291538021,00000386,false,Rx,0,6,02,EB,E6,78,80,00,00,00,
1291539031,000000FA,false,Rx,0,8,17,90,41,10,02,1A,1A,00,
1291539032,000001BA,false,Rx,0,6,10,41,C0,49,61,A7,00,00,
1291548292,000000FA,false,Rx,0,8,17,90,41,10,02,1A,1A,00,
1291549929,00000711,false,Rx,0,8,00,03,DE,94,06,74,00,25,
1291551619,00000201,false,Rx,0,8,00,FE,FE,00,00,00,7E,00,
1291558274,000000FA,false,Rx,0,8,17,88,41,10,02,1A,1A,00,
1291559272,000001BA,false,Rx,0,6,10,41,C0,49,61,A7,00,00,
1291568204,000000FA,false,Rx,0,8,17,88,41,10,02,1A,1A,00,
1291571651,00000201,false,Rx,0,8,00,FE,FE,00,00,00,7F,00,
1291572666,00000101,false,Rx,0,8,00,00,00,00,00,00,03,00,
1291573789,00000102,false,Rx,0,3,00,00,00,00,00,00,00,00,
1291578250,000000FA,false,Rx,0,8,17,90,41,10,02,1A,1A,00,
1291579269,000001BA,false,Rx,0,6,10,41,C0,49,61,A7,00,00,
1291583206,0000077A,false,Rx,0,8,4D,25,5D,80,1E,00,00,FF,
1291584700,0000049A,false,Rx,0,7,00,45,84,86,98,61,DC,00,
1291588272,000000FA,false,Rx,0,8,17,90,41,10,02,1A,1A,00,
1291591688,00000201,false,Rx,0,8,00,FE,FE,00,00,00,80,00,
1291598236,000000FA,false,Rx,0,8,17,88,41,10,02,1A,1A,00,
1291599244,000001BA,false,Rx,0,6,10,41,C0,49,61,A7,00,00,
1291608201,000000FA,false,Rx,0,8,17,88,41,10,02,1A,1A,00,
1291611677,00000201,false,Rx,0,8,00,FE,FE,00,00,00,81,00,
1291612690,00000101,false,Rx,0,8,00,00,00,00,00,00,03,00,
1291614873,00000102,false,Rx,0,3,00,00,00,00,00,00,00,00,
1291618085,00000766,false,Rx,0,8,00,04,00,00,00,03,00,00,
1291619083,000000FA,false,Rx,0,8,17,80,41,10,02,1A,1A,00,
1291619084,000001BA,false,Rx,0,6,10,41,C0,49,61,A7,00,00,
1291629445,000000FA,false,Rx,0,8,17,80,41,10,02,1A,1A,00,
1291631566,00000741,false,Rx,0,6,00,00,00,00,00,00,00,00,
1291632577,00000201,false,Rx,0,8,00,FE,FE,00,00,00,82,00,
1291637996,00000386,false,Rx,0,6,02,EB,E6,78,80,00,00,00,
1291638993,000000FA,false,Rx,0,8,17,80,41,10,02,1A,1A,00,
1291638994,000001BA,false,Rx,0,6,10,41,C0,49,61,A7,00,00,
1291648220,000000FA,false,Rx,0,8,17,80,41,10,02,1A,1A,00,
1291651645,00000201,false,Rx,0,8,00,FE,FE,00,00,00,83,00,
1291652659,00000101,false,Rx,0,8,00,00,00,00,00,00,03,00,
1291655789,00000102,false,Rx,0,3,00,00,00,00,00,00,00,00,
1291657354,00000711,false,Rx,0,8,00,03,DE,94,06,74,00,25,
1291658387,000000FA,false,Rx,0,8,17,80,41,10,02,1A,1A,00,
1291659347,000001BA,false,Rx,0,6,10,41,C0,49,61,A7,00,00,
1291669391,000000FA,false,Rx,0,8,17,80,41,10,02,1A,1A,00,
1291671597,00000201,false,Rx,0,8,00,FE,FE,00,00,00,84,00,
1291678257,000000FA,false,Rx,0,8,17,80,41,10,02,1A,1A,00,
1291679224,000001BA,false,Rx,0,6,10,41,C0,49,61,A7,00,00,
1291683266,0000077A,false,Rx,0,8,4D,26,5D,80,1E,00,00,FF,
1291684845,0000049A,false,Rx,0,7,00,45,84,86,98,61,DC,00,
1291688159,000000FA,false,Rx,0,8,17,80,41,10,02,1A,1A,00,
1291691617,00000201,false,Rx,0,8,00,FE,FE,00,00,00,85,00,
1291692640,00000101,false,Rx,0,8,00,00,00,00,00,00,03,00,
1291696715,00000102,false,Rx,0,3,00,00,00,00,00,00,00,00,
1291698172,000000FA,false,Rx,0,8,17,88,41,10,02,1A,1A,00,
1291699161,000001BA,false,Rx,0,6,10,41,C0,49,61,A7,00,00,
1291709391,000000FA,false,Rx,0,8,17,88,41,10,02,1A,1A,00,
1291711626,00000201,false,Rx,0,8,00,FE,FE,00,00,00,86,00,
1291718102,00000766,false,Rx,0,8,00,04,00,00,00,03,00,00,
1291719095,000000FA,false,Rx,0,8,17,80,41,10,02,1A,1A,00,
1291719095,000001BA,false,Rx,0,6,10,41,C0,49,61,A7,00,00,
1291729991,000000FA,false,Rx,0,8,17,80,41,10,02,1A,1A,00,
1291731593,00000741,false,Rx,0,6,00,00,00,00,00,00,00,00,
1291732697,00000201,false,Rx,0,8,00,FE,FE,00,00,00,87,00,
1291732697,00000101,false,Rx,0,8,00,00,00,00,00,00,03,00,
1291738029,00000386,false,Rx,0,6,02,EB,E6,78,80,00,00,00,
1291738959,000000FA,false,Rx,0,8,17,88,41,10,02,1A,1A,00,
1291738959,00000102,false,Rx,0,3,00,00,00,00,00,00,00,00,
1291739999,000001BA,false,Rx,0,6,10,41,C0,49,61,A7,00,00,
1291749327,000000FA,false,Rx,0,8,17,88,41,10,02,1A,1A,00,
1291751596,00000201,false,Rx,0,8,00,FE,FE,00,00,00,88,00,
1291758151,000000FA,false,Rx,0,8,17,88,41,10,02,1A,1A,00,
1291759174,000001BA,false,Rx,0,6,10,41,C0,49,61,A7,00,00,
1291763341,00000711,false,Rx,0,8,00,03,DE,94,06,74,00,25,
1291769380,000000FA,false,Rx,0,8,17,88,41,10,02,1A,1A,00,
1291771631,00000201,false,Rx,0,8,00,FE,FE,00,00,00,89,00,
1291772652,00000101,false,Rx,0,8,00,00,00,00,00,00,03,00,
1291778149,000000FA,false,Rx,0,8,17,78,41,10,02,1A,1A,00,
1291779174,000001BA,false,Rx,0,6,10,41,C0,49,61,A7,00,00,
1291779175,00000102,false,Rx,0,3,00,00,00,00,00,00,00,00,
1291783130,0000077A,false,Rx,0,8,4D,26,5D,80,1E,00,00,FF,
1291784611,0000049A,false,Rx,0,7,00,45,84,86,98,61,DC,00,
1291787450,000007D1,false,Rx,0,7,03,DE,94,00,00,00,FF,00,
1291789360,000000FA,false,Rx,0,8,17,78,41,10,02,1A,1A,00,
1291791632,00000201,false,Rx,0,8,00,FE,FE,00,00,00,8A,00,
1291798151,000000FA,false,Rx,0,8,17,78,41,10,02,1A,1A,00,
1291799250,000001BA,false,Rx,0,6,10,41,C0,49,61,A7,00,00,
1291809356,000000FA,false,Rx,0,8,17,78,42,10,02,1A,1A,00,
1291811650,00000201,false,Rx,0,8,00,FE,FE,00,00,00,8B,00,
1291812635,00000101,false,Rx,0,8,00,00,00,00,00,00,03,00,
1291818112,00000766,false,Rx,0,8,00,04,00,00,00,03,00,00,
1291819088,000000FA,false,Rx,0,8,17,78,42,10,02,1A,1A,00,
1291819090,000001BA,false,Rx,0,6,10,42,C0,49,61,A7,00,00,
1291820110,00000102,false,Rx,0,3,00,00,00,00,00,00,00,00,
1291829332,000000FA,false,Rx,0,8,17,78,42,10,02,1A,1A,00,
1291831578,00000741,false,Rx,0,6,00,00,00,00,00,00,00,00,
1291832575,00000201,false,Rx,0,8,00,FE,FE,00,00,00,8C,00,
1291837998,00000386,false,Rx,0,6,02,EB,E6,78,80,00,00,00,
1291838995,000000FA,false,Rx,0,8,17,78,42,10,02,1A,1A,00,
1291839001,000001BA,false,Rx,0,6,10,42,C0,49,61,A7,00,00,
1291849406,000000FA,false,Rx,0,8,17,78,42,10,02,1A,1A,00,
1291851641,00000201,false,Rx,0,8,00,FE,FE,00,00,00,8D,00,
1291852672,00000101,false,Rx,0,8,00,00,00,00,00,00,03,00,
1291858116,000000FA,false,Rx,0,8,17,80,42,10,02,1A,1A,00,
1291859088,000001BA,false,Rx,0,6,10,42,C0,49,61,A7,00,00,
1291861092,00000102,false,Rx,0,3,00,00,00,00,00,00,00,00,
1291868836,00000711,false,Rx,0,8,00,03,DE,94,06,74,00,25,
1291869837,000000FA,false,Rx,0,8,17,80,42,10,02,1A,1A,00,
1291871607,00000201,false,Rx,0,8,00,FE,FE,00,00,00,8E,00,
1291878077,000000FA,false,Rx,0,8,17,80,42,10,02,1A,1A,00,
1291879164,000001BA,false,Rx,0,6,10,42,C0,49,61,A7,00,00,
1291883162,0000077A,false,Rx,0,8,4D,27,5D,80,1E,00,00,FF,
1291884767,0000049A,false,Rx,0,7,00,45,84,86,98,61,DC,00,
1291889913,000000FA,false,Rx,0,8,17,80,41,10,02,1A,1A,00,
1291891611,00000201,false,Rx,0,8,00,FE,FE,00,00,00,8F,00,
1291892644,00000101,false,Rx,0,8,00,00,00,00,00,00,03,00,
1291898093,000000FA,false,Rx,0,8,17,80,41,10,02,1A,1A,00,
1291899045,000001BA,false,Rx,0,6,10,41,C0,49,61,A7,00,00,
1291901561,00000102,false,Rx,0,3,00,00,00,00,00,00,00,00,
1291909291,000000FA,false,Rx,0,8,17,80,41,10,02,1A,1A,00,
1291911625,00000201,false,Rx,0,8,00,FE,FE,00,00,00,90,00,
1291918037,000000FA,false,Rx,0,8,17,80,41,10,02,1A,1A,00,
1291919021,00000766,false,Rx,0,8,00,04,00,00,00,03,00,00,
1291919022,000001BA,false,Rx,0,6,10,41,C0,49,61,A7,00,00,
1291929338,000000FA,false,Rx,0,8,17,80,41,10,02,1A,1A,00,
1291931599,00000741,false,Rx,0,6,00,00,00,00,00,00,00,00,
1291932608,00000201,false,Rx,0,8,00,FE,FE,00,00,00,91,00,
1291932610,00000101,false,Rx,0,8,00,00,00,00,00,00,03,00,
1291938034,00000386,false,Rx,0,6,02,EB,E6,78,80,00,00,00,
1291939015,000000FA,false,Rx,0,8,17,78,41,10,02,1A,1A,00,
1291939017,000001BA,false,Rx,0,6,10,41,C0,49,61,A7,00,00,
1291943270,00000102,false,Rx,0,3,00,00,00,00,00,00,00,00,
1291949248,000000FA,false,Rx,0,8,17,78,41,10,02,1A,1A,00,
1291951600,00000201,false,Rx,0,8,00,FE,FE,00,00,00,92,00,
1291958050,000000FA,false,Rx,0,8,17,78,41,10,02,1A,1A,00,
1291959094,000001BA,false,Rx,0,6,10,41,C0,49,61,A7,00,00,
1291969261,000000FA,false,Rx,0,8,17,78,42,10,02,1A,1A,00,
1291971621,00000201,false,Rx,0,8,00,FE,FE,00,00,00,93,00,
1291972610,00000101,false,Rx,0,8,00,00,00,00,00,00,03,00,
1291975868,00000711,false,Rx,0,8,00,03,DE,94,06,74,00,25,
1291978125,000000FA,false,Rx,0,8,17,78,42,10,02,1A,1A,00,
1291979113,000001BA,false,Rx,0,6,10,42,C0,49,61,A7,00,00,
1291983068,0000077A,false,Rx,0,8,4D,27,5D,80,1E,00,00,FF,
1291984114,00000102,false,Rx,0,3,00,00,00,00,00,00,00,00,
1291985103,0000049A,false,Rx,0,7,00,45,84,86,98,61,DC,00,
1291989233,000000FA,false,Rx,0,8,17,78,42,10,02,1A,1A,00,
1291991617,00000201,false,Rx,0,8,00,FE,FE,00,00,00,94,00,
1291998016,000000FA,false,Rx,0,8,17,78,42,10,02,1A,1A,00,
1291998991,000001BA,false,Rx,0,6,10,42,C0,49,61,A7,00,00,
1292009316,000000FA,false,Rx,0,8,17,78,42,10,02,1A,1A,00,
1292011619,00000201,false,Rx,0,8,00,FE,FE,00,00,00,95,00,
1292012615,00000101,false,Rx,0,8,00,00,00,00,00,00,03,00,
1292018024,000000FA,false,Rx,0,8,17,78,42,10,02,1A,1A,00,
1292019000,00000766,false,Rx,0,8,00,04,00,00,00,03,00,00,
1292019000,000001BA,false,Rx,0,6,10,42,C0,49,61,A7,00,00,
1292025340,00000102,false,Rx,0,3,00,00,00,00,00,00,00,00,
1292029290,000000FA,false,Rx,0,8,17,78,42,10,02,1A,1A,00,
1292031547,00000741,false,Rx,0,6,00,00,00,00,00,00,00,00,
1292032566,00000201,false,Rx,0,8,00,FE,FE,00,00,00,96,00,
1292037960,000000FA,false,Rx,0,8,17,78,42,10,02,1A,1A,00,
1292038978,00000386,false,Rx,0,6,02,EB,E6,78,80,00,00,00,
1292038979,000001BA,false,Rx,0,6,10,42,C0,49,61,A7,00,00,
1292049795,000000FA,false,Rx,0,8,17,78,42,10,02,1A,1A,00,
1292051602,00000201,false,Rx,0,8,00,FE,FE,00,00,00,97,00,
1292052599,00000101,false,Rx,0,8,00,00,00,00,00,00,03,00,
1292058019,000000FA,false,Rx,0,8,17,78,42,10,02,1A,1A,00,
1292058982,000001BA,false,Rx,0,6,10,42,C0,49,61,A7,00,00,
1292065194,00000102,false,Rx,0,3,00,00,00,00,00,00,00,00,
1292069189,000000FA,false,Rx,0,8,17,78,42,10,02,1A,1A,00,
1292071570,00000201,false,Rx,0,8,00,FE,FE,00,00,00,98,00,
1292077971,000000FA,false,Rx,0,8,17,78,42,10,02,1A,1A,00,
1292078976,000001BA,false,Rx,0,6,10,42,C0,49,61,A7,00,00,
1292081911,00000711,false,Rx,0,8,00,03,DE,94,06,74,00,25,
1292083136,0000077A,false,Rx,0,8,4D,28,5D,80,1E,00,00,FF,
1292084618,0000049A,false,Rx,0,7,00,45,84,86,98,61,DC,00,
1292089205,000000FA,false,Rx,0,8,17,78,41,10,02,1A,1A,00,
1292091607,00000201,false,Rx,0,8,00,FE,FE,00,00,00,99,00,
1292092600,00000101,false,Rx,0,8,00,00,00,00,00,00,03,00,
1292097956,000000FA,false,Rx,0,8,17,78,41,10,02,1A,1A,00,
1292098967,000001BA,false,Rx,0,6,10,41,C0,49,61,A7,00,00,
1292106657,00000102,false,Rx,0,3,00,00,00,00,00,00,00,00,
1292109211,000000FA,false,Rx,0,8,17,80,41,10,02,1A,1A,00,
1292111606,00000201,false,Rx,0,8,00,FE,FE,00,00,00,9A,00,
1292117925,000000FA,false,Rx,0,8,17,80,41,10,02,1A,1A,00,
1292118912,00000766,false,Rx,0,8,00,04,00,00,00,03,00,00,
1292118912,000001BA,false,Rx,0,6,10,41,C0,49,61,A7,00,00,
1292129214,000000FA,false,Rx,0,8,17,80,41,10,02,1A,1A,00,
1292131583,00000741,false,Rx,0,6,00,00,00,00,00,00,00,00,
1292132590,00000201,false,Rx,0,8,00,FE,FE,00,00,00,9B,00,
1292132590,00000101,false,Rx,0,8,00,00,00,00,00,00,03,00,
1292137968,000000FA,false,Rx,0,8,17,88,41,10,02,1A,1A,00,
1292138976,00000386,false,Rx,0,6,02,EB,E6,78,80,00,00,00,
1292138977,000001BA,false,Rx,0,6,10,41,C0,49,61,A7,00,00,
1292148792,00000102,false,Rx,0,3,00,00,00,00,00,00,00,00,
1292149786,000000FA,false,Rx,0,8,17,88,41,10,02,1A,1A,00,
1292151603,00000201,false,Rx,0,8,00,FE,FE,00,00,00,9C,00,
1292157938,000000FA,false,Rx,0,8,17,88,41,10,02,1A,1A,00,
1292158914,000001BA,false,Rx,0,6,10,41,C0,49,61,A7,00,00,
1292169292,000000FA,false,Rx,0,8,17,88,41,10,02,1A,1A,00,
1292171605,00000201,false,Rx,0,8,00,FE,FE,00,00,00,9D,00,
1292172623,00000101,false,Rx,0,8,00,00,00,00,00,00,03,00,
1292177951,000000FA,false,Rx,0,8,17,88,41,10,02,1A,1A,00,
1292178977,000001BA,false,Rx,0,6,10,41,C0,49,61,A7,00,00,
1292182886,0000077A,false,Rx,0,8,4D,28,5D,80,1E,00,00,FF,
1292184373,0000049A,false,Rx,0,7,00,45,84,86,98,61,DC,00,
1292188573,00000102,false,Rx,0,3,00,00,00,00,00,00,00,00,
1292189565,000000FA,false,Rx,0,8,17,80,41,10,02,1A,1A,00,
1292190563,00000711,false,Rx,0,8,00,03,DE,94,06,74,00,25,
1292191596,00000201,false,Rx,0,8,00,FE,FE,00,00,00,9E,00,
1292197878,000000FA,false,Rx,0,8,17,80,41,10,02,1A,1A,00,
1292198896,000001BA,false,Rx,0,6,10,41,C0,49,61,A7,00,00,
1292209756,000000FA,false,Rx,0,8,17,80,41,10,02,1A,1A,00,
1292211585,00000201,false,Rx,0,8,00,FE,FE,00,00,00,9F,00,
1292212609,00000101,false,Rx,0,8,00,00,00,00,00,00,03,00,
1292217853,000000FA,false,Rx,0,8,17,80,41,10,02,1A,1A,00,
1292218872,00000766,false,Rx,0,8,00,04,00,00,00,03,00,00,
1292218873,000001BA,false,Rx,0,6,10,41,C0,49,61,A7,00,00,
1292228827,000000FA,false,Rx,0,8,17,80,41,10,02,1A,1A,00,
1292230031,00000102,false,Rx,0,3,00,00,00,00,00,00,00,00,
1292231579,00000741,false,Rx,0,6,00,00,00,00,00,00,00,00,
1292232568,00000201,false,Rx,0,8,00,FE,FE,00,00,00,A0,00,
1292237836,000000FA,false,Rx,0,8,17,80,41,10,02,1A,1A,00,
1292238872,00000386,false,Rx,0,6,02,EB,E6,78,80,00,00,00,
1292238873,000001BA,false,Rx,0,6,10,41,C0,49,61,A7,00,00,
1292249159,000000FA,false,Rx,0,8,17,70,41,10,02,1A,1A,00,
1292251601,00000201,false,Rx,0,8,00,FE,FE,00,00,00,A1,00,
1292252621,00000101,false,Rx,0,8,00,00,00,00,00,00,03,00,
1292257849,000000FA,false,Rx,0,8,17,70,41,10,02,1A,1A,00,
1292258851,000001BA,false,Rx,0,6,10,41,C0,49,61,A7,00,00,
1292268751,000000FA,false,Rx,0,8,17,70,41,10,02,1A,1A,00,
1292271565,00000201,false,Rx,0,8,00,FE,FE,00,00,00,A2,00,
1292277852,000000FA,false,Rx,0,8,17,70,41,10,02,1A,1A,00,
1292278870,000001BA,false,Rx,0,6,10,41,C0,49,61,A7,00,00,
1292278870,00000102,false,Rx,0,3,00,00,00,00,00,00,00,00,
1292282943,0000077A,false,Rx,0,8,4C,29,5D,80,1E,00,00,FF,
1292284492,0000049A,false,Rx,0,7,00,45,84,86,98,61,DC,00,
1292289097,000000FA,false,Rx,0,8,17,78,42,10,02,1A,1A,00,
1292291611,00000201,false,Rx,0,8,00,FE,FE,00,00,00,A3,00,
1292292600,00000101,false,Rx,0,8,00,00,00,00,00,00,03,00,
1292296441,00000711,false,Rx,0,8,00,03,DE,94,06,74,00,25,
1292297813,000000FA,false,Rx,0,8,17,78,42,10,02,1A,1A,00,
1292298829,000001BA,false,Rx,0,6,10,42,C0,49,61,A7,00,00,
1292308586,000000FA,false,Rx,0,8,17,78,42,10,02,1A,1A,00,
1292311568,00000201,false,Rx,0,8,00,FE,FE,00,00,00,A4,00,
1292317754,000000FA,false,Rx,0,8,17,78,42,10,02,1A,1A,00,
1292318778,00000766,false,Rx,0,8,00,04,00,00,00,03,00,00,
1292318778,000001BA,false,Rx,0,6,10,42,C0,49,61,A7,00,00,
1292319777,00000102,false,Rx,0,3,00,00,00,00,00,00,00,00,
1292329025,000000FA,false,Rx,0,8,17,80,41,10,02,1A,1A,00,
1292331585,00000741,false,Rx,0,6,00,00,00,00,00,00,00,00,
1292332529,00000201,false,Rx,0,8,00,FE,FE,00,00,00,A5,00,
1292332529,00000101,false,Rx,0,8,00,00,00,00,00,00,03,00,
1292337784,000000FA,false,Rx,0,8,17,80,41,10,02,1A,1A,00,
1292338778,00000386,false,Rx,0,6,02,EB,E6,78,80,00,00,00,
1292338779,000001BA,false,Rx,0,6,10,41,C0,49,61,A7,00,00,
1292348569,000000FA,false,Rx,0,8,17,78,41,10,02,1A,1A,00,
1292351569,00000201,false,Rx,0,8,00,FE,FE,00,00,00,A6,00,
1292357794,000000FA,false,Rx,0,8,17,78,41,10,02,1A,1A,00,
1292358790,000001BA,false,Rx,0,6,10,41,C0,49,61,A7,00,00,
1292360211,00000102,false,Rx,0,3,00,00,00,00,00,00,00,00,
1292369364,000000FA,false,Rx,0,8,17,80,41,10,02,1A,1A,00,
1292371617,00000201,false,Rx,0,8,00,FE,FE,00,00,00,A7,00,
1292372616,00000101,false,Rx,0,8,00,00,00,00,00,00,03,00,
1292377790,000000FA,false,Rx,0,8,17,80,41,10,02,1A,1A,00,
1292378780,000001BA,false,Rx,0,6,10,41,C0,49,61,A7,00,00,
1292382740,0000077A,false,Rx,0,8,4C,29,5D,80,1E,00,00,FF,
1292384233,0000049A,false,Rx,0,7,00,45,84,86,98,61,DC,00,
1292388360,000000FA,false,Rx,0,8,17,78,41,10,02,1A,1A,00,
1292391507,00000201,false,Rx,0,8,00,FE,FE,00,00,00,A8,00,
1292397715,000000FA,false,Rx,0,8,17,78,41,10,02,1A,1A,00,
1292398730,000001BA,false,Rx,0,6,10,41,C0,49,61,A7,00,00,
1292401219,00000102,false,Rx,0,3,00,00,00,00,00,00,00,00,
1292402231,00000711,false,Rx,0,8,00,03,DE,94,06,74,00,25,
1292408739,000000FA,false,Rx,0,8,17,70,41,10,02,1A,1A,00,
1292411536,00000201,false,Rx,0,8,00,FE,FE,00,00,00,A9,00,
1292412552,00000101,false,Rx,0,8,00,00,00,00,00,00,03,00,
1292417749,000000FA,false,Rx,0,8,17,70,41,10,02,1A,1A,00,
1292418750,00000766,false,Rx,0,8,00,04,00,00,00,03,00,00,
1292418751,000001BA,false,Rx,0,6,10,41,C0,49,61,A7,00,00,
1292419773,0000069F,false,Rx,0,4,89,55,10,0F,00,00,00,00,
1292428325,000000FA,false,Rx,0,8,17,70,41,10,02,1A,1A,00,
1292431487,00000741,false,Rx,0,6,00,00,00,00,00,00,00,00,
1292432510,00000201,false,Rx,0,8,00,FE,FE,00,00,00,AA,00,
1292437701,000000FA,false,Rx,0,8,17,70,41,10,02,1A,1A,00,
1292438717,00000386,false,Rx,0,6,02,EB,E6,78,80,00,00,00,
1292438718,000001BA,false,Rx,0,6,10,41,C0,49,61,A7,00,00,
1292442060,00000102,false,Rx,0,3,00,00,00,00,00,00,00,00,
1292448733,000000FA,false,Rx,0,8,17,70,42,10,02,1A,1A,00,
1292451574,00000201,false,Rx,0,8,00,FE,FE,00,00,00,AB,00,
1292452569,00000101,false,Rx,0,8,00,00,00,00,00,00,03,00,
1292457708,000000FA,false,Rx,0,8,17,70,42,10,02,1A,1A,00,
1292458721,000001BA,false,Rx,0,6,10,42,C0,49,61,A7,00,00,
1292468224,000000FA,false,Rx,0,8,17,78,42,10,02,1A,1A,00,
1292471582,00000201,false,Rx,0,8,00,FE,FE,00,00,00,AC,00,
1292477722,000000FA,false,Rx,0,8,17,78,42,10,02,1A,1A,00,
1292478715,000001BA,false,Rx,0,6,10,42,C0,49,61,A7,00,00,
1292482946,0000077A,false,Rx,0,8,4C,2A,5D,80,1E,00,00,FF,
1292484383,0000049A,false,Rx,0,7,00,45,84,86,98,61,DC,00,
1292485389,00000102,false,Rx,0,3,00,00,00,00,00,00,00,00,
1292488659,000000FA,false,Rx,0,8,17,78,42,10,02,1A,1A,00,
1292491536,00000201,false,Rx,0,8,00,FE,FE,00,00,00,AD,00,
1292492532,00000101,false,Rx,0,8,00,00,00,00,00,00,03,00,
1292497684,000000FA,false,Rx,0,8,17,78,42,10,02,1A,1A,00,
1292498669,000001BA,false,Rx,0,6,10,42,C0,49,61,A7,00,00,
1292508143,000000FA,false,Rx,0,8,17,78,41,10,02,1A,1A,00,
1292510576,00000711,false,Rx,0,8,00,03,DE,94,06,74,00,25,
1292511590,00000201,false,Rx,0,8,00,FE,FE,00,00,00,AE,00,
1292517719,000000FA,false,Rx,0,8,17,78,41,10,02,1A,1A,00,
1292518705,00000766,false,Rx,0,8,00,04,00,00,00,03,00,00,
1292518706,000001BA,false,Rx,0,6,10,41,C0,49,61,A7,00,00,
1292524134,00000102,false,Rx,0,3,00,00,00,00,00,00,00,00,
1292528999,000000FA,false,Rx,0,8,17,88,41,10,02,1A,1A,00,
1292531471,00000741,false,Rx,0,6,00,00,00,00,00,00,00,00,
1292532480,00000201,false,Rx,0,8,00,FE,FE,00,00,00,AF,00,
1292532481,00000101,false,Rx,0,8,00,00,00,00,00,00,03,00,
1292537667,000000FA,false,Rx,0,8,17,88,41,10,02,1A,1A,00,
1292538658,00000386,false,Rx,0,6,02,EB,E6,78,80,00,00,00,
1292538659,000001BA,false,Rx,0,6,10,41,C0,49,61,A7,00,00,
1292547921,000000FA,false,Rx,0,8,17,88,41,10,02,1A,1A,00,
1292551513,00000201,false,Rx,0,8,00,FE,FE,00,00,00,B0,00,
1292557666,000000FA,false,Rx,0,8,17,88,41,10,02,1A,1A,00,
1292558659,000001BA,false,Rx,0,6,10,41,C0,49,61,A7,00,00,
1292565247,00000102,false,Rx,0,3,00,00,00,00,00,00,00,00,
1292568185,000000FA,false,Rx,0,8,17,80,41,10,02,1A,1A,00,
1292571557,00000201,false,Rx,0,8,00,FE,FE,00,00,00,B1,00,
1292572559,00000101,false,Rx,0,8,00,00,00,00,00,00,03,00,
1292577698,000000FA,false,Rx,0,8,17,80,41,10,02,1A,1A,00,
1292578695,000001BA,false,Rx,0,6,10,41,C0,49,61,A7,00,00,
1292582713,0000077A,false,Rx,0,8,4C,2A,5D,80,1E,00,00,FF,
1292584194,0000049A,false,Rx,0,7,00,45,84,86,98,61,DC,00,
1292587743,000000FA,false,Rx,0,8,17,88,41,10,02,1A,1A,00,
1292591516,00000201,false,Rx,0,8,00,FE,FE,00,00,00,B2,00,
1292597658,000000FA,false,Rx,0,8,17,88,41,10,02,1A,1A,00,
1292598680,000001BA,false,Rx,0,6,10,41,C0,49,61,A7,00,00,
1292605889,00000102,false,Rx,0,3,00,00,00,00,00,00,00,00,
1292607967,000000FA,false,Rx,0,8,17,88,41,10,02,1A,1A,00,
1292611570,00000201,false,Rx,0,8,00,FE,FE,00,00,00,B3,00,
1292612573,00000101,false,Rx,0,8,00,00,00,00,00,00,03,00,
1292614416,00000711,false,Rx,0,8,00,03,DE,94,06,74,00,25,
1292617636,000000FA,false,Rx,0,8,17,88,41,10,02,1A,1A,00,
1292618657,00000766,false,Rx,0,8,00,04,00,00,00,03,00,00,
1292618658,000001BA,false,Rx,0,6,10,41,C0,49,61,A7,00,00,
1292627670,000000FA,false,Rx,0,8,17,88,41,10,02,1A,1A,00,
1292631427,00000741,false,Rx,0,6,00,00,00,00,00,00,00,00,
1292632446,00000201,false,Rx,0,8,00,FE,FE,00,00,00,B4,00,
1292637621,000000FA,false,Rx,0,8,17,88,41,10,02,1A,1A,00,
1292638636,00000386,false,Rx,0,6,02,EB,E6,78,80,00,00,00,
1292638638,000001BA,false,Rx,0,6,10,41,C0,49,61,A7,00,00,
1292647005,00000102,false,Rx,0,3,00,00,00,00,00,00,00,00,
1292647973,000000FA,false,Rx,0,8,17,88,41,10,02,1A,1A,00,
1292651541,00000201,false,Rx,0,8,00,FE,FE,00,00,00,B5,00,
1292652540,00000101,false,Rx,0,8,00,00,00,00,00,00,03,00,
1292657642,000000FA,false,Rx,0,8,17,88,41,10,02,1A,1A,00,
1292658660,000001BA,false,Rx,0,6,10,41,C0,49,61,A7,00,00,
1292667616,000000FA,false,Rx,0,8,17,80,41,10,02,1A,1A,00,
1292671513,00000201,false,Rx,0,8,00,FE,FE,00,00,00,B6,00,
1292677638,000000FA,false,Rx,0,8,17,80,41,10,02,1A,1A,00,
1292678630,000001BA,false,Rx,0,6,10,41,C0,49,61,A7,00,00,
1292682825,0000077A,false,Rx,0,8,4C,2B,5D,80,1E,00,00,FF,
1292684308,0000049A,false,Rx,0,7,00,45,84,86,98,61,DC,00,
1292687865,00000102,false,Rx,0,3,00,00,00,00,00,00,00,00,
1292688881,000000FA,false,Rx,0,8,17,88,41,10,02,1A,1A,00,
1292691566,00000201,false,Rx,0,8,00,FE,FE,00,00,00,B7,00,
1292692563,00000101,false,Rx,0,8,00,00,00,00,00,00,03,00,
1292697612,000000FA,false,Rx,0,8,17,88,41,10,02,1A,1A,00,
1292698630,000001BA,false,Rx,0,6,10,41,C0,49,61,A7,00,00,
1292707668,000000FA,false,Rx,0,8,17,88,41,10,02,1A,1A,00,
1292711520,00000201,false,Rx,0,8,00,FE,FE,00,00,00,B8,00,
1292717573,000000FA,false,Rx,0,8,17,88,41,10,02,1A,1A,00,
1292718591,00000766,false,Rx,0,8,00,04,00,00,00,03,00,00,
1292718591,000001BA,false,Rx,0,6,10,41,C0,49,61,A7,00,00,
1292721831,00000711,false,Rx,0,8,00,03,DE,94,06,74,00,25,
1292727624,000000FA,false,Rx,0,8,17,80,41,10,02,1A,1A,00,
1292729224,00000102,false,Rx,0,3,00,00,00,00,00,00,00,00,
1292731442,00000741,false,Rx,0,6,00,00,00,00,00,00,00,00,
1292732443,00000201,false,Rx,0,8,00,FE,FE,00,00,00,B9,00,
1292732443,00000101,false,Rx,0,8,00,00,00,00,00,00,03,00,
1292737616,000000FA,false,Rx,0,8,17,80,41,10,02,1A,1A,00,
1292738610,00000386,false,Rx,0,6,02,EB,E6,78,80,00,00,00,
1292738611,000001BA,false,Rx,0,6,10,41,C0,49,61,A7,00,00,
1292747629,000000FA,false,Rx,0,8,17,80,41,10,02,1A,1A,00,
1292751470,00000201,false,Rx,0,8,00,FE,FE,00,00,00,BA,00,
1292757594,000000FA,false,Rx,0,8,17,80,41,10,02,1A,1A,00,
1292758608,000001BA,false,Rx,0,6,10,41,C0,49,61,A7,00,00,
1292767540,000000FA,false,Rx,0,8,17,88,41,10,02,1A,1A,00,
1292771537,00000201,false,Rx,0,8,00,FE,FE,00,00,00,BB,00,
1292772554,00000101,false,Rx,0,8,00,00,00,00,00,00,03,00,
1292772554,00000102,false,Rx,0,3,00,00,00,00,00,00,00,00,
1292777572,000000FA,false,Rx,0,8,17,88,41,10,02,1A,1A,00,
1292778589,000001BA,false,Rx,0,6,10,41,C0,49,61,A7,00,00,
1292782611,0000077A,false,Rx,0,8,4C,2B,5D,80,1E,00,00,FF,
1292784084,0000049A,false,Rx,0,7,00,45,84,86,98,61,DC,00,
1292787597,000000FA,false,Rx,0,8,17,88,41,10,02,1A,1A,00,
1292791515,00000201,false,Rx,0,8,00,FE,FE,00,00,00,BC,00,
1292797539,000000FA,false,Rx,0,8,17,88,41,10,02,1A,1A,00,
1292798587,000001BA,false,Rx,0,6,10,41,C0,49,61,A7,00,00,
1292807549,000000FA,false,Rx,0,8,17,80,41,10,02,1A,1A,00,
1292810824,00000102,false,Rx,0,3,00,00,00,00,00,00,00,00,
1292811849,00000201,false,Rx,0,8,00,FE,FE,00,00,00,BD,00,
1292812813,00000101,false,Rx,0,8,00,00,00,00,00,00,03,00,
1292817561,000000FA,false,Rx,0,8,17,80,41,10,02,1A,1A,00,
1292818585,00000766,false,Rx,0,8,00,04,00,00,00,03,00,00,
1292818585,000001BA,false,Rx,0,6,10,41,C0,49,61,A7,00,00,
1292827600,000000FA,false,Rx,0,8,17,80,41,10,02,1A,1A,00,
1292828641,00000711,false,Rx,0,8,00,03,DE,94,06,74,00,25,
1292831432,00000741,false,Rx,0,6,00,00,00,00,00,00,00,00,
1292832440,00000201,false,Rx,0,8,00,FE,FE,00,00,00,BE,00,
1292837537,000000FA,false,Rx,0,8,17,80,41,10,02,1A,1A,00,
1292838531,00000386,false,Rx,0,6,02,EB,E6,78,80,00,00,00,
1292838531,000001BA,false,Rx,0,6,10,41,C0,49,61,A7,00,00,
1292847579,000000FA,false,Rx,0,8,17,80,41,10,02,1A,1A,00,
1292851505,00000201,false,Rx,0,8,00,FE,FE,00,00,00,BF,00,
1292852502,00000101,false,Rx,0,8,00,00,00,00,00,00,03,00,
1292852503,00000102,false,Rx,0,3,00,00,00,00,00,00,00,00,
1292857520,000000FA,false,Rx,0,8,17,80,41,10,02,1A,1A,00,
1292858564,000001BA,false,Rx,0,6,10,41,C0,49,61,A7,00,00,
1292867534,000000FA,false,Rx,0,8,17,80,41,10,02,1A,1A,00,
1292871518,00000201,false,Rx,0,8,00,FE,FE,00,00,00,C0,00,
1292877617,000000FA,false,Rx,0,8,17,80,41,10,02,1A,1A,00,
1292878551,000001BA,false,Rx,0,6,10,41,C0,49,61,A7,00,00,
1292882732,0000077A,false,Rx,0,8,4C,2C,5D,80,1E,00,00,FF,
1292884167,0000049A,false,Rx,0,7,00,45,84,86,98,61,DC,00,
1292887513,000000FA,false,Rx,0,8,17,78,41,10,02,1A,1A,00,
1292891576,00000201,false,Rx,0,8,00,FE,FE,00,00,00,C1,00,
1292892574,00000101,false,Rx,0,8,00,00,00,00,00,00,03,00,
1292893633,00000102,false,Rx,0,3,00,00,00,00,00,00,00,00,
1292897591,000000FA,false,Rx,0,8,17,78,41,10,02,1A,1A,00,
1292898506,000001BA,false,Rx,0,6,10,41,C0,49,61,A7,00,00,
1292907559,000000FA,false,Rx,0,8,17,78,41,10,02,1A,1A,00,
1292911489,00000201,false,Rx,0,8,00,FE,FE,00,00,00,C2,00,
1292917466,000000FA,false,Rx,0,8,17,78,41,10,02,1A,1A,00,
1292918485,00000766,false,Rx,0,8,00,04,00,00,00,03,00,00,
1292918486,000001BA,false,Rx,0,6,10,41,C0,49,61,A7,00,00,
1292927470,000000FA,false,Rx,0,8,17,78,41,10,02,1A,1A,00,
1292931609,00000741,false,Rx,0,6,00,00,00,00,00,00,00,00,
1292932612,00000201,false,Rx,0,8,00,FE,FE,00,00,00,C3,00,
1292932613,00000101,false,Rx,0,8,00,00,00,00,00,00,03,00,
1292933584,00000102,false,Rx,0,3,00,00,00,00,00,00,00,00,
1292935160,00000711,false,Rx,0,8,00,03,DE,94,06,74,00,25,
1292937466,000000FA,false,Rx,0,8,17,78,41,10,02,1A,1A,00,
1292938489,00000386,false,Rx,0,6,02,EB,E6,78,80,00,00,00,
1292938490,000001BA,false,Rx,0,6,10,41,C0,49,61,A7,00,00,
1292947510,000000FA,false,Rx,0,8,17,80,41,10,02,1A,1A,00,
1292951492,00000201,false,Rx,0,8,00,FE,FE,00,00,00,C4,00,
1292957532,000000FA,false,Rx,0,8,17,80,41,10,02,1A,1A,00,
1292958490,000001BA,false,Rx,0,6,10,41,C0,49,61,A7,00,00,
1292967426,000000FA,false,Rx,0,8,17,88,41,10,02,1A,1A,00,
1292971512,00000201,false,Rx,0,8,00,FE,FE,00,00,00,C5,00,
1292972535,00000101,false,Rx,0,8,00,00,00,00,00,00,03,00,
1292974954,00000102,false,Rx,0,3,00,00,00,00,00,00,00,00,
1292977535,000000FA,false,Rx,0,8,17,88,41,10,02,1A,1A,00,
1292978490,000001BA,false,Rx,0,6,10,41,C0,49,61,A7,00,00,
1292982485,0000077A,false,Rx,0,8,4C,2C,5D,80,1E,00,00,FF,
1292985186,0000049A,false,Rx,0,7,00,45,84,86,98,61,DC,00,
1292987480,000000FA,false,Rx,0,8,17,88,41,10,02,1A,1A,00,
1292991488,00000201,false,Rx,0,8,00,FE,FE,00,00,00,C6,00,
1292997446,000000FA,false,Rx,0,8,17,88,41,10,02,1A,1A,00,
1292998432,000001BA,false,Rx,0,6,10,41,C0,49,61,A7,00,00,
1293007416,000000FA,false,Rx,0,8,17,90,41,10,02,1A,1A,00,
1293011505,00000201,false,Rx,0,8,00,FE,FE,00,00,00,C7,00,
1293012637,00000101,false,Rx,0,8,00,00,00,00,00,00,03,00,
1293016644,00000102,false,Rx,0,3,00,00,00,00,00,00,00,00,
1293017639,000000FA,false,Rx,0,8,17,90,41,10,02,1A,1A,00,
1293018628,000001BA,false,Rx,0,6,10,41,C0,49,61,A7,00,00,
1293018629,00000766,false,Rx,0,8,00,04,00,00,00,03,00,00,
1293027445,000000FA,false,Rx,0,8,17,88,41,10,02,1A,1A,00,
1293031414,00000741,false,Rx,0,6,00,00,00,00,00,00,00,00,
1293032407,00000201,false,Rx,0,8,00,FE,FE,00,00,00,C8,00,
1293037441,000000FA,false,Rx,0,8,17,88,41,10,02,1A,1A,00,
1293038409,000001BA,false,Rx,0,6,10,41,C0,49,61,A7,00,00,
1293038410,00000386,false,Rx,0,6,02,EB,E6,78,80,00,00,00,
1293041313,00000711,false,Rx,0,8,00,03,DE,94,06,74,00,25,
1293047422,000000FA,false,Rx,0,8,17,80,40,10,02,1A,1A,00,
1293051505,00000201,false,Rx,0,8,00,FE,FE,00,00,00,C9,00,
1293052536,00000101,false,Rx,0,8,00,00,00,00,00,00,03,00,
1293056616,00000102,false,Rx,0,3,00,00,00,00,00,00,00,00,
1293057635,000000FA,false,Rx,0,8,17,80,40,10,02,1A,1A,00,
1293058590,000001BA,false,Rx,0,6,10,40,C0,49,61,A7,00,00,
1293067409,000000FA,false,Rx,0,8,17,88,41,10,02,1A,1A,00,
1293071472,00000201,false,Rx,0,8,00,FE,FE,00,00,00,CA,00,
1293077434,000000FA,false,Rx,0,8,17,88,41,10,02,1A,1A,00,
1293078405,000001BA,false,Rx,0,6,10,41,C0,49,61,A7,00,00,
1293082618,0000077A,false,Rx,0,8,4C,2D,5D,80,1E,00,00,FF,
1293085417,0000049A,false,Rx,0,7,00,45,84,86,98,61,DC,00,
1293087359,000000FA,false,Rx,0,8,17,88,41,10,02,1A,1A,00,
1293091506,00000201,false,Rx,0,8,00,FE,FE,00,00,00,CB,00,
1293092529,00000101,false,Rx,0,8,00,00,00,00,00,00,03,00,
1293097361,000000FA,false,Rx,0,8,17,88,41,10,02,1A,1A,00,
1293098380,000001BA,false,Rx,0,6,10,41,C0,49,61,A7,00,00,
1293099375,00000102,false,Rx,0,3,00,00,00,00,00,00,00,00,
1293107412,000000FA,false,Rx,0,8,17,90,41,10,02,1A,1A,00,
1293111472,00000201,false,Rx,0,8,00,FE,FE,00,00,00,CC,00,
1293117375,000000FA,false,Rx,0,8,17,90,41,10,02,1A,1A,00,
1293118383,000001BA,false,Rx,0,6,10,41,C0,49,61,A7,00,00,
1293118384,00000766,false,Rx,0,8,00,04,00,00,00,03,00,00,
1293127365,000000FA,false,Rx,0,8,17,90,40,10,02,1A,1A,00,
1293131437,00000741,false,Rx,0,6,00,00,00,00,00,00,00,00,
1293132584,00000201,false,Rx,0,8,00,FE,FE,00,00,00,CD,00,
1293132584,00000101,false,Rx,0,8,00,00,00,00,00,00,03,00,
1293137350,000000FA,false,Rx,0,8,17,90,40,10,02,1A,1A,00,
1293138361,000001BA,false,Rx,0,6,10,40,C0,49,61,A7,00,00,
1293138362,00000386,false,Rx,0,6,02,EB,E6,78,80,00,00,00,
1293139355,00000102,false,Rx,0,3,00,00,00,00,00,00,00,00,
1293147182,00000711,false,Rx,0,8,00,03,DE,94,06,74,00,25,
1293148191,000000FA,false,Rx,0,8,17,88,40,10,02,1A,1A,00,
1293151448,00000201,false,Rx,0,8,00,FE,FE,00,00,00,CE,00,
1293157394,000000FA,false,Rx,0,8,17,88,40,10,02,1A,1A,00,
1293158351,000001BA,false,Rx,0,6,10,40,C0,49,61,A7,00,00,
1293167326,000000FA,false,Rx,0,8,17,88,40,10,02,1A,1A,00,
1293171508,00000201,false,Rx,0,8,00,FE,FE,00,00,00,CF,00,
1293172482,00000101,false,Rx,0,8,00,00,00,00,00,00,03,00,
1293177382,000000FA,false,Rx,0,8,17,88,40,10,02,1A,1A,00,
1293178376,000001BA,false,Rx,0,6,10,40,C0,49,61,A7,00,00,
1293180322,00000102,false,Rx,0,3,00,00,00,00,00,00,00,00,
1293182357,0000077A,false,Rx,0,8,4C,2D,5D,80,1E,00,00,FF,
1293185065,0000049A,false,Rx,0,7,00,45,84,86,98,61,DC,00,
1293187385,000000FA,false,Rx,0,8,17,80,40,10,02,1A,1A,00,
1293191483,00000201,false,Rx,0,8,00,FE,FE,00,00,00,D0,00,
1293197318,000000FA,false,Rx,0,8,17,80,40,10,02,1A,1A,00,
1293198314,000001BA,false,Rx,0,6,10,40,C0,49,61,A7,00,00,
1293207290,000000FA,false,Rx,0,8,17,68,40,10,02,1A,1A,00,
1293211493,00000201,false,Rx,0,8,00,FE,FE,00,00,00,D1,00,
1293212511,00000101,false,Rx,0,8,00,00,00,00,00,00,03,00,
1293217314,000000FA,false,Rx,0,8,17,68,40,10,02,1A,1A,00,
1293218319,000001BA,false,Rx,0,6,10,40,C0,49,61,A7,00,00,
1293218319,00000766,false,Rx,0,8,00,04,00,00,00,03,00,00,
1293221840,00000102,false,Rx,0,3,00,00,00,00,00,00,00,00,
1293227383,000000FA,false,Rx,0,8,17,68,41,10,02,1A,1A,00,
1293231482,00000741,false,Rx,0,6,00,00,00,00,00,00,00,00,
1293232508,00000201,false,Rx,0,8,00,FE,FE,00,00,00,D2,00,
1293237515,000000FA,false,Rx,0,8,17,68,41,10,02,1A,1A,00,
1293238465,00000386,false,Rx,0,6,02,EB,E6,78,80,00,00,00,
1293238466,000001BA,false,Rx,0,6,10,41,C0,49,61,A7,00,00,
1293247286,000000FA,false,Rx,0,8,17,70,41,10,02,1A,1A,00,
1293251483,00000201,false,Rx,0,8,00,FE,FE,00,00,00,D3,00,
1293252524,00000101,false,Rx,0,8,00,00,00,00,00,00,03,00,
1293253569,00000711,false,Rx,0,8,00,03,DE,94,06,74,00,25,
1293257353,000000FA,false,Rx,0,8,17,70,41,10,02,1A,1A,00,
1293258308,000001BA,false,Rx,0,6,10,41,C0,49,61,A7,00,00,
1293263860,00000102,false,Rx,0,3,00,00,00,00,00,00,00,00,
1293267305,000000FA,false,Rx,0,8,17,70,41,10,02,1A,1A,00,
1293271461,00000201,false,Rx,0,8,00,FE,FE,00,00,00,D4,00,
1293277431,000000FA,false,Rx,0,8,17,70,41,10,02,1A,1A,00,
1293278448,000001BA,false,Rx,0,6,10,41,C0,49,61,A7,00,00,
1293282418,0000077A,false,Rx,0,8,4C,2E,5D,80,1E,00,00,FF,
1293285255,0000049A,false,Rx,0,7,00,45,84,86,98,61,DC,00,
1293287284,000000FA,false,Rx,0,8,17,78,41,10,02,1A,1A,00,
1293291480,00000201,false,Rx,0,8,00,FE,FE,00,00,00,D5,00,
1293292475,00000101,false,Rx,0,8,00,00,00,00,00,00,03,00,
1293297298,000000FA,false,Rx,0,8,17,78,41,10,02,1A,1A,00,
1293298280,000001BA,false,Rx,0,6,10,41,C0,49,61,A7,00,00,
1293302154,00000102,false,Rx,0,3,00,00,00,00,00,00,00,00,
1293307288,000000FA,false,Rx,0,8,17,78,41,10,02,1A,1A,00,
1293311477,00000201,false,Rx,0,8,00,FE,FE,00,00,00,D6,00,
1293317367,000000FA,false,Rx,0,8,17,78,41,10,02,1A,1A,00,
1293318378,000001BA,false,Rx,0,6,10,41,C0,49,61,A7,00,00,
1293318379,00000766,false,Rx,0,8,00,04,00,00,00,03,00,00,
1293327270,000000FA,false,Rx,0,8,17,80,41,10,02,1A,1A,00,
1293331416,00000741,false,Rx,0,6,00,00,00,00,00,00,00,00,
1293332417,00000201,false,Rx,0,8,00,FE,FE,00,00,00,D7,00,
1293332418,00000101,false,Rx,0,8,00,00,00,00,00,00,03,00,
1293337258,000000FA,false,Rx,0,8,17,80,41,10,02,1A,1A,00,
1293338255,000001BA,false,Rx,0,6,10,41,C0,49,61,A7,00,00,
1293338255,00000386,false,Rx,0,6,02,EB,E6,78,80,00,00,00,
1293343296,00000102,false,Rx,0,3,00,00,00,00,00,00,00,00,
1293347289,000000FA,false,Rx,0,8,17,80,41,10,02,1A,1A,00,
1293351411,00000201,false,Rx,0,8,00,FE,FE,00,00,00,D8,00,
1293357367,000000FA,false,Rx,0,8,17,80,41,10,02,1A,1A,00,
1293358415,000001BA,false,Rx,0,6,10,41,C0,49,61,A7,00,00,
1293359839,00000711,false,Rx,0,8,00,03,DE,94,06,74,00,25,
1293367214,000000FA,false,Rx,0,8,17,78,41,10,02,1A,1A,00,
1293371416,00000201,false,Rx,0,8,00,FE,FE,00,00,00,D9,00,
1293372415,00000101,false,Rx,0,8,00,D0,00,00,00,00,03,00,
1293377299,000000FA,false,Rx,0,8,17,78,41,10,02,1A,1A,00,
1293378273,000001BA,false,Rx,0,6,10,41,C0,49,61,A7,00,00,
1293382234,0000077A,false,Rx,0,8,4C,2E,5D,80,1E,00,00,FF,
1293384712,00000102,false,Rx,0,3,00,00,00,00,00,00,00,00,
1293385733,0000049A,false,Rx,0,7,00,45,84,86,98,61,DC,00,
1293387282,000000FA,false,Rx,0,8,17,80,41,10,02,1A,1A,00,
1293391449,00000201,false,Rx,0,8,00,FE,FE,00,00,00,DA,00,
1293397407,000000FA,false,Rx,0,8,17,80,41,10,02,1A,1A,00,
1293398359,000001BA,false,Rx,0,6,10,41,C0,49,61,A7,00,00,
1293407196,000000FA,false,Rx,0,8,17,80,41,10,02,1A,1A,00,
1293411498,00000201,false,Rx,0,8,00,FE,FE,00,00,00,DB,00,
1293412503,00000101,false,Rx,0,8,00,CA,00,00,00,00,03,00,
1293417205,000000FA,false,Rx,0,8,17,80,41,10,02,1A,1A,00,
1293418222,000001BA,false,Rx,0,6,10,41,C0,49,61,A7,00,00,
1293418223,00000766,false,Rx,0,8,00,04,00,00,00,03,00,00,
1293419214,0000069F,false,Rx,0,4,89,55,10,0F,00,00,00,00,
1293425204,00000102,false,Rx,0,3,00,00,00,00,00,00,00,00,
1293427233,000000FA,false,Rx,0,8,17,80,41,10,02,1A,1A,00,
1293431488,00000741,false,Rx,0,6,00,D0,00,00,00,00,00,00,
1293432507,00000201,false,Rx,0,8,00,FE,FE,00,00,00,DC,00,
1293437340,000000FA,false,Rx,0,8,17,80,41,10,02,1A,1A,00,
1293438332,000001BA,false,Rx,0,6,10,41,C0,49,61,A7,00,00,
1293438334,00000386,false,Rx,0,6,02,EB,E6,78,80,00,00,00,
1293447218,000000FA,false,Rx,0,8,17,80,41,10,02,1A,1A,00,
1293451460,00000201,false,Rx,0,8,00,FE,FE,00,00,00,DD,00,
1293452475,00000101,false,Rx,0,8,00,D0,00,00,00,00,03,00,
1293457228,000000FA,false,Rx,0,8,17,80,41,10,02,1A,1A,00,
1293458247,000001BA,false,Rx,0,6,10,41,C0,49,61,A7,00,00,
1293466021,00000102,false,Rx,0,3,00,00,00,00,00,00,00,00,
1293467204,000000FA,false,Rx,0,8,17,78,41,10,02,1A,1A,00,
1293468225,00000711,false,Rx,0,8,00,03,DE,94,06,74,00,25,
1293471419,00000201,false,Rx,0,8,00,FE,FE,00,00,00,DE,00,
1293477311,000000FA,false,Rx,0,8,17,78,41,10,02,1A,1A,00,
1293478332,000001BA,false,Rx,0,6,10,41,C0,49,61,A7,00,00,
1293482421,0000077A,false,Rx,0,8,4C,2F,5D,80,1E,00,00,FF,
1293485753,0000049A,false,Rx,0,7,00,45,84,86,98,61,DC,00,
1293487202,000000FA,false,Rx,0,8,17,80,41,10,02,1A,1A,00,
1293491437,00000201,false,Rx,0,8,00,FE,FE,00,00,00,DF,00,
1293492457,00000101,false,Rx,0,8,00,CA,00,00,00,00,03,00,
1293497170,000000FA,false,Rx,0,8,17,80,41,10,02,1A,1A,00,
1293498181,000001BA,false,Rx,0,6,10,41,C0,49,61,A7,00,00,
1293507176,000000FA,false,Rx,0,8,17,88,41,10,02,1A,1A,00,
1293508205,00000102,false,Rx,0,3,00,00,00,00,00,00,00,00,
1293511440,00000201,false,Rx,0,8,00,FE,FE,00,00,00,E0,00,
1293517304,000000FA,false,Rx,0,8,17,88,41,10,02,1A,1A,00,
1293518312,000001BA,false,Rx,0,6,10,41,C0,49,61,A7,00,00,
1293518313,00000766,false,Rx,0,8,00,04,00,00,00,03,00,00,
1293527195,000000FA,false,Rx,0,8,17,80,41,10,02,1A,1A,00,
1293531398,00000741,false,Rx,0,6,00,CA,00,00,00,00,00,00,
1293532389,00000201,false,Rx,0,8,00,FE,FE,00,00,00,E1,00,
1293532391,00000101,false,Rx,0,8,00,CA,00,00,00,00,03,00,
1293537145,000000FA,false,Rx,0,8,17,80,41,10,02,1A,1A,00,
1293538170,000001BA,false,Rx,0,6,10,41,C0,49,61,A7,00,00,
1293538172,00000386,false,Rx,0,6,02,EB,E6,78,80,00,00,00,
1293547197,000000FA,false,Rx,0,8,17,88,40,10,02,1A,1A,00,
1293548247,00000102,false,Rx,0,3,00,00,00,00,00,00,00,00,
1293551430,00000201,false,Rx,0,8,00,FE,FE,00,00,00,E2,00,
1293557286,000000FA,false,Rx,0,8,17,88,40,10,02,1A,1A,00,
1293558303,000001BA,false,Rx,0,6,10,40,C0,49,61,A7,00,00,
1293567244,000000FA,false,Rx,0,8,17,90,41,10,02,1A,1A,00,
1293571420,00000201,false,Rx,0,8,00,FE,FE,00,00,00,E3,00,
1293572435,00000101,false,Rx,0,8,00,B9,00,00,00,00,03,00,
1293573433,00000711,false,Rx,0,8,00,03,DE,94,06,74,00,25,
1293577161,000000FA,false,Rx,0,8,17,90,41,10,02,1A,1A,00,
1293578185,000001BA,false,Rx,0,6,10,41,C0,49,61,A7,00,00,
1293583292,0000077A,false,Rx,0,8,4C,2F,5D,80,1E,00,00,FF,
1293584844,0000049A,false,Rx,0,7,00,45,84,86,98,61,DC,00,
1293587163,000000FA,false,Rx,0,8,17,98,40,10,02,1A,1A,00,
1293588916,00000102,false,Rx,0,3,00,00,00,00,00,00,00,00,
1293591419,00000201,false,Rx,0,8,00,FE,FE,00,00,00,E4,00,
1293597229,000000FA,false,Rx,0,8,17,98,40,10,02,1A,1A,00,
1293598242,000001BA,false,Rx,0,6,10,40,C0,49,61,A7,00,00,
1293607111,000000FA,false,Rx,0,8,17,98,40,10,02,1A,1A,00,
1293611411,00000201,false,Rx,0,8,00,FE,FE,00,00,00,E5,00,
1293612438,00000101,false,Rx,0,8,00,7B,00,00,00,00,03,00,
1293617137,000000FA,false,Rx,0,8,17,98,40,10,02,1A,1A,00,
1293618096,000001BA,false,Rx,0,6,10,40,C0,49,61,A7,00,00,
1293618097,00000766,false,Rx,0,8,00,04,00,00,00,03,00,00,
1293627125,000000FA,false,Rx,0,8,17,98,40,10,02,1A,1A,00,
1293630426,00000102,false,Rx,0,3,00,00,00,00,00,00,00,00,
1293631458,00000741,false,Rx,0,6,00,70,00,00,00,00,00,00,
1293632471,00000201,false,Rx,0,8,00,FE,FE,00,00,00,E6,00,
1293637246,000000FA,false,Rx,0,8,17,98,40,10,02,1A,1A,00,
1293638267,000001BA,false,Rx,0,6,10,40,C0,49,61,A7,00,00,
1293638267,00000386,false,Rx,0,6,02,EB,E6,78,80,00,00,00,
1293647082,000000FA,false,Rx,0,8,17,A0,40,10,02,1A,1A,00,
1293651436,00000201,false,Rx,0,8,00,FE,FE,00,00,00,E7,00,
1293652443,00000101,false,Rx,0,8,00,00,00,00,00,00,03,00,
1293657104,000000FA,false,Rx,0,8,17,A0,40,10,02,1A,1A,00,
1293658088,000001BA,false,Rx,0,6,10,40,C0,49,61,A7,00,00,
1293667073,000000FA,false,Rx,0,8,17,98,40,10,02,1A,1A,00,
1293670817,00000102,false,Rx,0,3,00,00,00,00,00,00,00,00,
1293671898,00000201,false,Rx,0,8,00,FE,FE,00,00,00,E8,00,
1293677291,000000FA,false,Rx,0,8,17,98,40,10,02,1A,1A,00,
1293678212,000001BA,false,Rx,0,6,10,40,C0,49,61,A7,00,00,
1293679731,00000711,false,Rx,0,8,00,03,DE,94,06,74,00,25,
1293683380,0000077A,false,Rx,0,8,4C,30,5D,80,1E,00,00,FF,
1293684903,0000049A,false,Rx,0,7,00,45,84,86,98,61,DC,00,
1293687053,000000FA,false,Rx,0,8,17,90,3F,10,02,1A,1A,00,
1293691461,00000201,false,Rx,0,8,00,FE,FE,00,00,00,E9,00,
1293692449,00000101,false,Rx,0,8,00,00,00,00,00,00,03,00,
1293697087,000000FA,false,Rx,0,8,17,90,3F,10,02,1A,1A,00,
1293698091,000001BA,false,Rx,0,6,10,3F,C0,49,61,A7,00,00,
1293707258,000000FA,false,Rx,0,8,17,90,40,10,02,1A,1A,00,
1293711421,00000201,false,Rx,0,8,00,FE,FE,00,00,00,EA,00,
1293712419,00000102,false,Rx,0,3,00,00,00,00,00,00,00,00,
1293717173,000000FA,false,Rx,0,8,17,90,40,10,02,1A,1A,00,
1293718334,000001BA,false,Rx,0,6,10,40,C0,49,61,A7,00,00,
1293718336,00000766,false,Rx,0,8,00,04,00,00,00,03,00,00,
1293727110,000000FA,false,Rx,0,8,17,90,40,10,02,1A,1A,00,
1293731392,00000741,false,Rx,0,6,00,00,00,00,00,00,00,00,
1293732387,00000201,false,Rx,0,8,00,FE,FE,00,00,00,EB,00,
1293732389,00000101,false,Rx,0,8,00,00,00,00,00,00,03,00,
1293737093,000000FA,false,Rx,0,8,17,90,40,10,02,1A,1A,00,
1293738052,000001BA,false,Rx,0,6,10,40,C0,49,61,A7,00,00,
1293738053,00000386,false,Rx,0,6,02,EB,E6,78,80,00,00,00,
1293747051,000000FA,false,Rx,0,8,17,90,40,10,02,1A,1A,00,
1293751407,00000201,false,Rx,0,8,00,FE,FE,00,00,00,EC,00,
1293753173,00000102,false,Rx,0,3,00,00,00,00,00,00,00,00,
1293757142,000000FA,false,Rx,0,8,17,90,40,10,02,1A,1A,00,
1293758173,000001BA,false,Rx,0,6,10,40,C0,49,61,A7,00,00,
1293767050,000000FA,false,Rx,0,8,17,90,40,10,02,1A,1A,00,
1293771422,00000201,false,Rx,0,8,00,FE,FE,00,00,00,ED,00,
1293772416,00000101,false,Rx,0,8,00,00,00,00,00,00,03,00,
1293777088,000000FA,false,Rx,0,8,17,90,40,10,02,1A,1A,00,
1293778090,000001BA,false,Rx,0,6,10,40,C0,49,61,A7,00,00,
1293783230,0000077A,false,Rx,0,8,4C,30,5D,80,1E,00,00,FF,
1293784797,0000049A,false,Rx,0,7,00,45,84,86,98,61,DC,00,
1293787057,000000FA,false,Rx,0,8,17,88,40,10,02,1A,1A,00,
1293788039,00000711,false,Rx,0,8,00,03,DE,94,06,74,00,25,
1293791401,00000201,false,Rx,0,8,00,FE,FE,00,00,00,EE,00,
1293793752,00000102,false,Rx,0,3,00,00,00,00,00,00,00,00,
1293797103,000000FA,false,Rx,0,8,17,88,40,10,02,1A,1A,00,
1293798122,000001BA,false,Rx,0,6,10,40,C0,49,61,A7,00,00,
1293806976,000000FA,false,Rx,0,8,17,90,40,11,02,1B,1B,00,
1293811391,00000201,false,Rx,0,8,00,FE,FE,00,00,00,EF,00,
1293812414,00000101,false,Rx,0,8,00,00,00,00,00,00,03,00,
1293817003,000000FA,false,Rx,0,8,17,90,40,11,02,1B,1B,00,
1293817995,000001BA,false,Rx,0,6,11,40,C0,49,61,A7,00,00,
1293817996,00000766,false,Rx,0,8,00,04,00,00,00,03,00,00,
1293827009,000000FA,false,Rx,0,8,17,88,40,16,02,23,23,00,
1293831344,00000741,false,Rx,0,6,00,00,00,00,00,00,00,00,
1293832360,00000201,false,Rx,0,8,00,FE,FE,00,00,00,F0,00,
1293834607,00000102,false,Rx,0,3,00,00,00,00,00,00,00,00,
1293837110,000000FA,false,Rx,0,8,17,88,40,16,02,23,23,00,
1293838103,000001BA,false,Rx,0,6,16,40,C0,49,61,A7,00,00,
1293838104,00000386,false,Rx,0,6,02,EB,E6,78,80,00,00,00,
1293846969,000000FA,false,Rx,0,8,17,80,40,18,02,26,26,00,
1293851421,00000201,false,Rx,0,8,00,FE,FE,00,00,00,F1,00,
1293852429,00000101,false,Rx,0,8,00,00,00,00,00,00,03,00,
1293856969,000000FA,false,Rx,0,8,17,80,40,18,02,26,26,00,
1293858014,000001BA,false,Rx,0,6,18,40,C0,49,61,A7,00,00,
1293866973,000000FA,false,Rx,0,8,17,80,44,17,02,25,25,00,
1293871389,00000201,false,Rx,0,8,00,FE,FE,00,00,00,F2,00,
1293876073,00000102,false,Rx,0,3,00,00,00,00,00,00,00,00,
1293877070,000000FA,false,Rx,0,8,17,80,44,17,02,25,25,00,
1293878067,000001BA,false,Rx,0,6,17,44,C0,49,61,A7,00,00,
1293883231,0000077A,false,Rx,0,8,4C,31,5D,80,1E,00,00,FF,
1293884726,0000049A,false,Rx,0,7,00,45,84,86,98,61,DC,00,
1293886975,000000FA,false,Rx,0,8,17,88,47,17,02,25,25,00,
1293891441,00000201,false,Rx,0,8,00,FE,FE,00,00,00,F3,00,
1293892444,00000101,false,Rx,0,8,00,00,00,00,00,00,03,00,
1293893459,00000711,false,Rx,0,8,00,03,DE,94,06,74,00,25,
1293896940,000000FA,false,Rx,0,8,17,88,47,17,02,25,25,00,
1293897947,000001BA,false,Rx,0,6,17,47,C0,49,61,A7,00,00,
1293906955,000000FA,false,Rx,0,8,17,A0,47,17,02,24,24,00,
1293911369,00000201,false,Rx,0,8,00,FE,FE,00,00,00,F4,00,
1293916572,00000102,false,Rx,0,3,00,00,00,00,00,00,00,00,
1293917570,000000FA,false,Rx,0,8,17,A0,47,17,02,24,24,00,
1293917570,000001BA,false,Rx,0,6,17,47,C0,49,61,A7,00,00,
1293918592,00000766,false,Rx,0,8,00,04,00,00,00,03,00,00,
1293926956,000000FA,false,Rx,0,8,17,C0,48,17,02,24,24,00,
1293931344,00000741,false,Rx,0,6,00,00,00,00,00,00,00,00,
1293932339,00000201,false,Rx,0,8,00,FE,FE,00,00,00,F5,00,
1293932340,00000101,false,Rx,0,8,00,00,00,00,00,00,03,00,
1293936950,000000FA,false,Rx,0,8,17,C0,48,17,02,24,24,00,
1293937946,000001BA,false,Rx,0,6,17,48,C0,49,61,A7,00,00,
1293937947,00000386,false,Rx,0,6,02,EB,E6,78,80,00,00,00,
1293946962,000000FA,false,Rx,0,8,17,E0,47,17,02,24,24,00,
1293951359,00000201,false,Rx,0,8,00,FE,FE,00,00,00,F6,00,
1293956915,000000FA,false,Rx,0,8,17,E0,47,17,02,24,24,00,
1293957931,000001BA,false,Rx,0,6,17,47,C0,49,61,A7,00,00,
1293958919,00000102,false,Rx,0,3,00,00,00,00,00,00,00,00,
1293966891,000000FA,false,Rx,0,8,18,00,47,17,02,24,24,00,
1293971390,00000201,false,Rx,0,8,00,FE,FE,00,00,00,F7,00,
1293972409,00000101,false,Rx,0,8,00,00,00,00,00,00,03,00,
1293976994,000000FA,false,Rx,0,8,18,00,47,17,02,24,24,00,
1293977945,000001BA,false,Rx,0,6,17,47,C0,49,61,A7,00,00,
1293983109,0000077A,false,Rx,0,8,4C,31,5D,80,1E,00,00,FF,
1293984733,0000049A,false,Rx,0,7,00,45,84,86,98,61,DC,00,
1293986945,000000FA,false,Rx,0,8,18,20,45,11,02,1B,1B,00,
1293991376,00000201,false,Rx,0,8,00,FE,FE,00,00,00,F8,00,
1293996888,000000FA,false,Rx,0,8,18,20,45,11,02,1B,1B,00,
1293997907,000001BA,false,Rx,0,6,11,45,C0,49,61,A7,00,00,
1293998906,00000102,false,Rx,0,3,00,00,00,00,00,00,00,00,
1294000189,00000711,false,Rx,0,8,00,03,DE,94,06,74,00,25,
1294006874,000000FA,false,Rx,0,8,18,38,41,10,02,1A,1A,00,
1294011368,00000201,false,Rx,0,8,00,FE,FE,00,00,00,F9,00,
1294012380,00000101,false,Rx,0,8,00,00,00,00,00,00,03,00,
1294017812,00000766,false,Rx,0,8,00,04,00,00,00,03,00,00,
1294018828,000000FA,false,Rx,0,8,18,38,41,10,02,1A,1A,00,
1294018828,000001BA,false,Rx,0,6,10,41,C0,49,61,A7,00,00,
1294026925,000000FA,false,Rx,0,8,18,50,3F,10,02,1A,1A,00,
1294031311,00000741,false,Rx,0,6,00,00,00,00,00,00,00,00,
1294032320,00000201,false,Rx,0,8,00,FE,FE,00,00,00,FA,00,
1294037753,00000386,false,Rx,0,6,02,EB,E6,78,80,00,00,00,
1294038736,000000FA,false,Rx,0,8,18,68,3F,10,02,1A,1A,00,
1294038737,000001BA,false,Rx,0,6,10,3F,C0,49,61,A7,00,00,
1294040011,00000102,false,Rx,0,3,00,00,00,00,00,00,00,00,
1294046843,000000FA,false,Rx,0,8,18,68,3D,10,02,1A,1A,00,
1294051408,00000201,false,Rx,0,8,00,FE,FE,00,00,00,FB,00,
1294052427,00000101,false,Rx,0,8,00,00,00,00,00,00,03,00,
1294056997,000000FA,false,Rx,0,8,18,70,3D,10,02,1A,1A,00,
1294058004,000001BA,false,Rx,0,6,10,3D,C0,49,61,A7,00,00,
1294066848,000000FA,false,Rx,0,8,18,70,3B,10,02,1A,1A,00,
1294071389,00000201,false,Rx,0,8,00,FE,FE,00,00,00,FC,00,
1294076977,000000FA,false,Rx,0,8,18,68,3B,10,02,1A,1A,00,
1294077938,000001BA,false,Rx,0,6,10,3B,C0,49,61,A7,00,00,
1294081872,0000077A,false,Rx,0,8,4C,32,5D,80,1E,00,00,FF,
1294082890,00000102,false,Rx,0,3,00,00,00,00,00,00,00,00,
1294083883,0000049A,false,Rx,0,7,00,45,84,86,98,61,DC,00,
1294086798,000000FA,false,Rx,0,8,18,68,3A,10,02,1A,1A,00,
1294091384,00000201,false,Rx,0,8,00,FE,FE,00,00,00,FD,00,
1294092408,00000101,false,Rx,0,8,00,00,00,00,00,00,03,00,
1294096881,000000FA,false,Rx,0,8,18,58,3A,10,02,1A,1A,00,
1294097873,000001BA,false,Rx,0,6,10,3A,C0,49,61,A7,00,00,
1294106062,00000711,false,Rx,0,8,00,03,DE,94,06,74,00,25,
1294107068,000000FA,false,Rx,0,8,18,58,3A,10,02,1A,1A,00,
1294111362,00000201,false,Rx,0,8,00,FE,FE,00,00,00,FE,00,
1294116841,000000FA,false,Rx,0,8,18,40,3A,10,02,1A,1A,00,
1294117836,000001BA,false,Rx,0,6,10,3A,C0,49,61,A7,00,00,
1294117837,00000766,false,Rx,0,8,00,04,00,00,00,03,00,00,
1294121822,00000102,false,Rx,0,3,00,00,00,00,00,00,00,00,
1294126785,000000FA,false,Rx,0,8,18,40,3A,10,02,1A,1A,00,
1294131324,00000741,false,Rx,0,6,00,00,00,00,00,00,00,00,
1294132338,00000201,false,Rx,0,8,00,FE,FE,00,00,00,FF,00,
1294132339,00000101,false,Rx,0,8,00,00,00,00,00,00,03,00,
1294136821,000000FA,false,Rx,0,8,18,20,3A,10,02,1A,1A,00,
1294137841,000001BA,false,Rx,0,6,10,3A,C0,49,61,A7,00,00,
1294137842,00000386,false,Rx,0,6,02,EB,E6,78,80,00,00,00,
1294146977,000000FA,false,Rx,0,8,18,20,3B,10,02,1A,1A,00,
1294151361,00000201,false,Rx,0,8,00,FE,FE,00,00,00,00,00,
1294156827,000000FA,false,Rx,0,8,17,F8,3B,10,02,1A,1A,00,
1294157841,000001BA,false,Rx,0,6,10,3B,C0,49,61,A7,00,00,
1294162334,00000102,false,Rx,0,3,00,00,00,00,00,00,00,00,
1294166788,000000FA,false,Rx,0,8,17,F8,3B,10,02,1A,1A,00,
1294171394,00000201,false,Rx,0,8,00,FE,FE,00,00,00,01,00,
1294172407,00000101,false,Rx,0,8,00,00,00,00,00,00,03,00,
1294176822,000000FA,false,Rx,0,8,17,E8,3B,10,02,1A,1A,00,
1294177835,000001BA,false,Rx,0,6,10,3B,C0,49,61,A7,00,00,
1294181837,0000077A,false,Rx,0,8,4C,32,5D,80,1E,00,00,FF,
1294183335,0000049A,false,Rx,0,7,00,45,84,86,98,61,DC,00,
1294186948,000000FA,false,Rx,0,8,17,E8,3C,10,02,1A,1A,00,
1294191346,00000201,false,Rx,0,8,00,FE,FE,00,00,00,02,00,
1294196835,000000FA,false,Rx,0,8,17,D0,3C,10,02,1A,1A,00,
1294197888,000001BA,false,Rx,0,6,10,3C,C0,49,61,A7,00,00,
1294203617,00000102,false,Rx,0,3,00,00,00,00,00,00,00,00,
1294206793,000000FA,false,Rx,0,8,17,D0,3D,10,02,1A,1A,00,
1294211386,00000201,false,Rx,0,8,00,FE,FE,00,00,00,03,00,
1294212410,00000101,false,Rx,0,8,00,00,00,00,00,00,03,00,
1294212411,00000711,false,Rx,0,8,00,03,DE,94,06,74,00,25,
1294216811,000000FA,false,Rx,0,8,17,C0,3D,10,02,1A,1A,00,
1294217800,000001BA,false,Rx,0,6,10,3D,C0,49,61,A7,00,00,
1294218807,00000766,false,Rx,0,8,00,04,00,00,00,03,00,00,
1294226911,000000FA,false,Rx,0,8,17,C0,3D,10,02,1A,1A,00,
1294231315,00000741,false,Rx,0,6,00,00,00,00,00,00,00,00,
1294232334,00000201,false,Rx,0,8,00,FE,FE,00,00,00,04,00,
1294236827,000000FA,false,Rx,0,8,17,B0,3D,10,02,1A,1A,00,
1294237824,000001BA,false,Rx,0,6,10,3D,C0,49,61,A7,00,00,
1294237824,00000386,false,Rx,0,6,02,EB,E6,78,80,00,00,00,
1294244824,00000102,false,Rx,0,3,00,00,00,00,00,00,00,00,
1294246714,000000FA,false,Rx,0,8,17,B0,3D,10,02,1A,1A,00,
1294251361,00000201,false,Rx,0,8,00,FE,FE,00,00,00,05,00,
1294252410,00000101,false,Rx,0,8,00,00,00,00,00,00,03,00,
1294256807,000000FA,false,Rx,0,8,17,A0,3D,10,02,1A,1A,00,
1294257794,000001BA,false,Rx,0,6,10,3D,C0,49,61,A7,00,00,
1294266888,000000FA,false,Rx,0,8,17,A0,3E,10,02,1A,1A,00,
1294271347,00000201,false,Rx,0,8,00,FE,FE,00,00,00,06,00,
1294276768,000000FA,false,Rx,0,8,17,98,3E,10,02,1A,1A,00,
1294277832,000001BA,false,Rx,0,6,10,3E,C0,49,61,A7,00,00,
1294281739,0000077A,false,Rx,0,8,4C,33,5D,80,1E,00,00,FF,
1294283213,0000049A,false,Rx,0,7,00,45,84,86,98,61,DC,00,
1294285781,00000102,false,Rx,0,3,00,00,00,00,00,00,00,00,
1294286781,000000FA,false,Rx,0,8,17,98,3E,10,02,1A,1A,00,
1294291402,00000201,false,Rx,0,8,00,FE,FE,00,00,00,07,00,
1294292426,00000101,false,Rx,0,8,00,00,00,00,00,00,03,00,
1294296734,000000FA,false,Rx,0,8,17,88,3E,10,02,1A,1A,00,
1294297759,000001BA,false,Rx,0,6,10,3E,C0,49,61,A7,00,00,
1294306846,000000FA,false,Rx,0,8,17,88,3E,10,02,1A,1A,00,
1294311300,00000201,false,Rx,0,8,00,FE,FE,00,00,00,08,00,
1294316755,000000FA,false,Rx,0,8,17,70,3E,10,02,1A,1A,00,
1294317737,000001BA,false,Rx,0,6,10,3E,C0,49,61,A7,00,00,
1294318712,00000766,false,Rx,0,8,00,04,00,00,00,03,00,00,
1294318713,00000711,false,Rx,0,8,00,03,DE,94,06,74,00,25,
1294326727,000000FA,false,Rx,0,8,17,70,3F,10,02,1A,1A,00,
1294328781,00000102,false,Rx,0,3,00,00,00,00,00,00,00,00,
1294331312,00000741,false,Rx,0,6,00,00,00,00,00,00,00,00,
1294332294,00000201,false,Rx,0,8,00,FE,FE,00,00,00,09,00,
1294332294,00000101,false,Rx,0,8,00,00,00,00,00,00,03,00,
1294336760,000000FA,false,Rx,0,8,17,70,3F,10,02,1A,1A,00,
1294337758,000001BA,false,Rx,0,6,10,3F,C0,49,61,A7,00,00,
1294337759,00000386,false,Rx,0,6,02,EB,E6,78,80,00,00,00,
1294346878,000000FA,false,Rx,0,8,17,70,3F,10,02,1A,1A,00,
1294351345,00000201,false,Rx,0,8,00,FE,FE,00,00,00,0A,00,
1294356679,000000FA,false,Rx,0,8,17,68,3F,10,02,1A,1A,00,
1294357693,000001BA,false,Rx,0,6,10,3F,C0,49,61,A7,00,00,
1294366703,000000FA,false,Rx,0,8,17,68,3F,10,02,1A,1A,00,
1294367692,00000102,false,Rx,0,3,00,00,00,00,00,00,00,00,
1294371387,00000201,false,Rx,0,8,00,FE,FE,00,00,00,0B,00,
1294372380,00000101,false,Rx,0,8,00,00,00,00,00,00,03,00,
1294376738,000000FA,false,Rx,0,8,17,60,3F,10,02,1A,1A,00,
1294377754,000001BA,false,Rx,0,6,10,3F,C0,49,61,A7,00,00,
1294381734,0000077A,false,Rx,0,8,4C,33,5D,80,1E,00,00,FF,
1294383255,0000049A,false,Rx,0,7,00,45,84,86,98,61,DC,00,
1294386823,000000FA,false,Rx,0,8,17,60,40,10,02,1A,1A,00,
1294391330,00000201,false,Rx,0,8,00,FE,FE,00,00,00,0C,00,
1294396762,000000FA,false,Rx,0,8,17,50,40,10,02,1A,1A,00,
1294397755,000001BA,false,Rx,0,6,10,40,C0,49,61,A7,00,00,
1294406644,000000FA,false,Rx,0,8,17,50,40,10,02,1A,1A,00,
1294408385,00000102,false,Rx,0,3,00,00,00,00,00,00,00,00,
1294411345,00000201,false,Rx,0,8,00,FE,FE,00,00,00,0D,00,
1294412369,00000101,false,Rx,0,8,00,00,00,00,00,00,03,00,
1294416701,000000FA,false,Rx,0,8,17,48,40,10,02,1A,1A,00,
1294417728,000001BA,false,Rx,0,6,10,40,C0,49,61,A7,00,00,
1294418693,00000766,false,Rx,0,8,00,04,00,00,00,03,00,00,
1294418694,0000069F,false,Rx,0,4,89,55,10,0F,00,00,00,00,
1294424643,00000711,false,Rx,0,8,00,03,DE,94,06,74,00,25,
1294426786,000000FA,false,Rx,0,8,17,48,40,10,02,1A,1A,00,
1294431258,00000741,false,Rx,0,6,00,00,00,00,00,00,00,00,
1294432253,00000201,false,Rx,0,8,00,FE,FE,00,00,00,0E,00,
1294436709,000000FA,false,Rx,0,8,17,50,40,10,02,1A,1A,00,
1294437716,000001BA,false,Rx,0,6,10,40,C0,49,61,A7,00,00,
1294437717,00000386,false,Rx,0,6,02,EB,E6,78,80,00,00,00,
1294446662,000000FA,false,Rx,0,8,17,50,41,10,02,1A,1A,00,
1294449958,00000102,false,Rx,0,3,00,00,00,00,00,00,00,00,
1294451326,00000201,false,Rx,0,8,00,FE,FE,00,00,00,0F,00,
1294452351,00000101,false,Rx,0,8,00,00,00,00,00,00,03,00,
1294456706,000000FA,false,Rx,0,8,17,50,41,10,02,1A,1A,00,
1294457726,000001BA,false,Rx,0,6,10,41,C0,49,61,A7,00,00,
1294466774,000000FA,false,Rx,0,8,17,50,40,10,02,1A,1A,00,
1294471334,00000201,false,Rx,0,8,00,FE,FE,00,00,00,10,00,
1294476711,000000FA,false,Rx,0,8,17,50,40,10,02,1A,1A,00,
1294477722,000001BA,false,Rx,0,6,10,40,C0,49,61,A7,00,00,
1294481606,0000077A,false,Rx,0,8,4C,33,5D,80,1E,00,00,FF,
1294483079,0000049A,false,Rx,0,7,00,45,84,86,98,61,DC,00,
1294486649,000000FA,false,Rx,0,8,17,50,40,10,02,1A,1A,00,
1294490278,00000102,false,Rx,0,3,00,00,00,00,00,00,00,00,
1294491373,00000201,false,Rx,0,8,00,FE,FE,00,00,00,11,00,
1294492362,00000101,false,Rx,0,8,00,00,00,00,00,00,03,00,
1294496623,000000FA,false,Rx,0,8,17,58,40,10,02,1A,1A,00,
1294497643,000001BA,false,Rx,0,6,10,40,C0,49,61,A7,00,00,
1294506750,000000FA,false,Rx,0,8,17,58,40,10,02,1A,1A,00,
1294511328,00000201,false,Rx,0,8,00,FE,FE,00,00,00,12,00,
1294516667,000000FA,false,Rx,0,8,17,60,40,10,02,1A,1A,00,
1294517684,000001BA,false,Rx,0,6,10,40,C0,49,61,A7,00,00,
1294518686,00000766,false,Rx,0,8,00,04,00,00,00,03,00,00,
1294526635,000000FA,false,Rx,0,8,17,60,40,10,02,1A,1A,00,
1294531333,00000741,false,Rx,0,6,00,00,00,00,00,00,00,00,
1294532308,00000102,false,Rx,0,3,00,00,00,00,00,00,00,00,
1294532310,00000201,false,Rx,0,8,00,FE,FE,00,00,00,13,00,
1294533330,00000101,false,Rx,0,8,00,00,00,00,00,00,03,00,
1294533332,00000711,false,Rx,0,8,00,03,DE,94,06,74,00,25,
1294536603,000000FA,false,Rx,0,8,17,68,40,10,02,1A,1A,00,
1294537650,000001BA,false,Rx,0,6,10,40,C0,49,61,A7,00,00,
1294538616,00000386,false,Rx,0,6,02,EB,E6,78,80,00,00,00,
1294546728,000000FA,false,Rx,0,8,17,68,40,10,02,1A,1A,00,
1294551306,00000201,false,Rx,0,8,00,FE,FE,00,00,00,14,00,
1294556618,000000FA,false,Rx,0,8,17,70,40,10,02,1A,1A,00,
1294557632,000001BA,false,Rx,0,6,10,40,C0,49,61,A7,00,00,
1294566581,000000FA,false,Rx,0,8,17,70,40,17,02,24,24,00,
1294571321,00000201,false,Rx,0,8,00,FE,FE,00,00,00,15,00,
1294572335,00000101,false,Rx,0,8,00,00,00,00,00,00,03,00,
1294572336,00000102,false,Rx,0,3,00,00,00,00,00,00,00,00,
1294576613,000000FA,false,Rx,0,8,17,70,40,17,02,24,24,00,
1294577633,000001BA,false,Rx,0,6,17,40,C0,49,61,A7,00,00,
1294581641,0000077A,false,Rx,0,8,4C,34,5D,80,1E,00,00,FF,
1294583112,0000049A,false,Rx,0,7,00,45,84,86,98,61,DC,00,
1294586722,000000FA,false,Rx,0,8,17,70,44,1F,02,32,32,00,
1294591317,00000201,false,Rx,0,8,00,FE,FE,00,00,00,16,00,
1294596589,000000FA,false,Rx,0,8,17,78,44,1F,02,32,32,00,
1294597587,000001BA,false,Rx,0,6,1F,44,C0,49,61,A7,00,00,
1294606542,000000FA,false,Rx,0,8,17,78,4B,1F,02,32,32,00,
1294611352,00000201,false,Rx,0,8,00,FE,FE,00,00,00,17,00,
1294612355,00000101,false,Rx,0,8,00,00,00,00,00,00,03,00,
1294613354,00000102,false,Rx,0,3,00,00,00,00,00,00,00,00,
1294616592,000000FA,false,Rx,0,8,17,80,4B,1F,02,32,32,00,
1294617612,000001BA,false,Rx,0,6,1F,4B,C0,49,61,A7,00,00,
1294618608,00000766,false,Rx,0,8,00,04,00,00,00,03,00,00,
1294626739,000000FA,false,Rx,0,8,17,80,4D,27,02,45,45,00,
1294631251,00000741,false,Rx,0,6,00,00,00,00,00,00,00,00,
1294632256,00000201,false,Rx,0,8,00,FE,FE,00,00,00,18,00,
1294636573,000000FA,false,Rx,0,8,17,80,4D,27,02,45,45,00,
1294637612,000001BA,false,Rx,0,6,27,4D,C0,49,61,A7,00,00,
1294638606,00000386,false,Rx,0,6,02,EB,E6,78,80,00,00,00,
1294638607,00000711,false,Rx,0,8,00,03,DE,94,06,74,00,25,
1294646570,000000FA,false,Rx,0,8,17,80,57,28,02,47,47,00,
1294651302,00000201,false,Rx,0,8,00,FE,FE,00,00,00,19,00,
1294652318,00000101,false,Rx,0,8,00,00,00,00,00,00,03,00,
1294655415,00000102,false,Rx,0,3,00,00,00,00,00,00,00,00,
1294656589,000000FA,false,Rx,0,8,17,A8,57,28,02,47,47,00,
1294657587,000001BA,false,Rx,0,6,28,57,C0,49,61,A7,00,00,
1294666561,000000FA,false,Rx,0,8,17,A8,5B,29,02,4A,4A,00,
1294671289,00000201,false,Rx,0,8,00,FE,FE,00,00,00,1A,00,
1294676618,000000FA,false,Rx,0,8,17,E0,5B,29,02,4A,4A,00,
1294677611,000001BA,false,Rx,0,6,29,5B,C0,49,61,A7,00,00,
1294681568,0000077A,false,Rx,0,8,4C,35,5D,80,1E,00,00,FF,
1294682992,0000049A,false,Rx,0,7,00,45,84,86,98,61,DC,00,
1294686508,000000FA,false,Rx,0,8,17,E0,5E,29,02,4B,4B,00,
1294691345,00000201,false,Rx,0,8,00,FE,FE,00,00,00,1B,00,
1294692372,00000101,false,Rx,0,8,00,00,00,00,00,00,03,00,
1294695102,00000102,false,Rx,0,3,00,00,00,00,00,00,00,00,
1294696564,000000FA,false,Rx,0,8,18,40,5E,29,02,4B,4B,00,
1294697610,000001BA,false,Rx,0,6,29,5E,C0,49,61,A7,00,00,
1294706540,000000FA,false,Rx,0,8,18,40,60,2A,02,4C,4C,00,
1294711353,00000201,false,Rx,0,8,00,FE,FE,00,00,00,1C,00,
1294716530,000000FA,false,Rx,0,8,18,B8,60,2A,02,4C,4C,00,
1294717531,000001BA,false,Rx,0,6,2A,60,C0,49,61,A7,00,00,
1294718552,00000766,false,Rx,0,8,00,04,00,00,00,03,00,00,
1294727748,000000FA,false,Rx,0,8,18,B8,5F,2A,02,4D,4D,00,
1294731334,00000741,false,Rx,0,6,00,00,00,00,00,00,00,00,
1294732313,00000201,false,Rx,0,8,00,FE,FE,00,00,00,1D,00,
1294732314,00000101,false,Rx,0,8,00,00,00,00,00,00,03,00,
1294735793,00000102,false,Rx,0,3,00,00,00,00,00,00,00,00,
1294736812,000000FA,false,Rx,0,8,19,30,5F,2A,02,4D,4D,00,
1294737818,000001BA,false,Rx,0,6,2A,5F,C0,49,61,A7,00,00,
1294737818,00000386,false,Rx,0,6,02,EB,E6,78,80,00,00,00,
1294746846,00000711,false,Rx,0,8,00,03,DE,94,06,74,00,25,
1294747850,000000FA,false,Rx,0,8,19,C0,5D,2B,02,4E,4E,00,
1294751310,00000201,false,Rx,0,8,00,FE,FE,00,00,00,1E,00,
1294756489,000000FA,false,Rx,0,8,19,C0,5D,2B,02,4E,4E,00,
1294757463,000001BA,false,Rx,0,6,2B,5D,C0,49,61,A7,00,00,
1294766543,000000FA,false,Rx,0,8,1A,30,5B,2A,02,4C,4C,00,
1294771353,00000201,false,Rx,0,8,00,FE,FE,00,00,00,1F,00,
1294772371,00000101,false,Rx,0,8,00,00,00,00,00,00,03,00,
1294776565,000000FA,false,Rx,0,8,1A,30,5B,2A,02,4C,4C,00,
1294777575,000001BA,false,Rx,0,6,2A,5B,C0,49,61,A7,00,00,
1294778566,00000102,false,Rx,0,3,00,00,00,00,00,00,00,00,
1294782786,0000077A,false,Rx,0,8,4C,36,5D,80,1E,00,00,FF,
1294784390,0000049A,false,Rx,0,7,00,45,84,86,98,61,DC,00,
1294786520,000000FA,false,Rx,0,8,1A,A0,56,2B,02,4D,4D,00,
1294791357,00000201,false,Rx,0,8,00,FE,FE,00,00,00,20,00,
1294793567,000007D1,false,Rx,0,7,03,DE,94,00,00,00,FF,00,
1294797643,000000FA,false,Rx,0,8,1A,A0,56,2B,02,4D,4D,00,
1294798663,000001BA,false,Rx,0,6,2B,56,C0,49,61,A7,00,00,
1294806462,000000FA,false,Rx,0,8,1B,00,50,2A,02,4C,4C,00,
1294811357,00000201,false,Rx,0,8,00,FE,FE,00,00,00,21,00,
1294812393,00000101,false,Rx,0,8,00,00,00,00,00,00,03,00,
1294816474,000000FA,false,Rx,0,8,1B,58,50,2A,02,4C,4C,00,
1294817499,000001BA,false,Rx,0,6,2A,50,C0,49,61,A7,00,00,
1294818503,00000766,false,Rx,0,8,00,04,00,00,00,03,00,00,
1294818503,00000102,false,Rx,0,3,00,00,00,00,00,00,00,00,
1294826512,000000FA,false,Rx,0,8,1B,58,4D,2A,02,4B,4B,00,
1294831270,00000741,false,Rx,0,6,00,00,00,00,00,00,00,00,
1294832292,00000201,false,Rx,0,8,00,FE,FE,00,00,00,22,00,
1294836443,000000FA,false,Rx,0,8,1B,A8,4D,2A,02,4B,4B,00,
1294837474,000001BA,false,Rx,0,6,2A,4D,C0,49,61,A7,00,00,
1294838478,00000386,false,Rx,0,6,02,EB,E6,78,80,00,00,00,
1294846447,000000FA,false,Rx,0,8,1B,A8,4A,2A,02,4B,4B,00,
1294851231,00000711,false,Rx,0,8,00,03,DE,94,06,74,00,25,
1294852226,00000201,false,Rx,0,8,00,FE,FE,00,00,00,23,00,
1294852227,00000101,false,Rx,0,8,00,00,00,00,00,00,03,00,
1294856469,000000FA,false,Rx,0,8,1C,00,4A,2A,02,4B,4B,00,
1294857478,000001BA,false,Rx,0,6,2A,4A,C0,49,61,A7,00,00,
1294861256,00000102,false,Rx,0,3,00,00,00,00,00,00,00,00,
1294866459,000000FA,false,Rx,0,8,1C,48,49,2A,02,4B,4B,00,
1294871288,00000201,false,Rx,0,8,00,FE,FE,00,00,00,24,00,
1294876595,000000FA,false,Rx,0,8,1C,48,49,2A,02,4B,4B,00,
1294877603,000001BA,false,Rx,0,6,2A,49,C0,49,61,A7,00,00,
1294883410,0000077A,false,Rx,0,8,4C,36,5D,80,1E,00,00,FF,
1294884916,0000049A,false,Rx,0,7,00,45,84,86,98,61,DC,00,
1294886442,000000FA,false,Rx,0,8,1C,98,49,2A,02,4B,4B,00,
1294891318,00000201,false,Rx,0,8,00,FE,FE,00,00,00,25,00,
1294892338,00000101,false,Rx,0,8,00,00,00,00,00,00,03,00,
1294897700,000000FA,false,Rx,0,8,1C,98,49,2A,02,4B,4B,00,
1294898689,000001BA,false,Rx,0,6,2A,49,C0,49,61,A7,00,00,
1294901623,00000102,false,Rx,0,3,00,00,00,00,00,00,00,00,
1294906483,000000FA,false,Rx,0,8,1C,D8,49,2A,02,49,49,00,
1294911292,00000201,false,Rx,0,8,00,FE,FE,00,00,00,26,00,
1294916465,000000FA,false,Rx,0,8,1D,08,49,2A,02,49,49,00,
1294917471,000001BA,false,Rx,0,6,2A,49,C0,49,61,A7,00,00,
1294918472,00000766,false,Rx,0,8,00,04,00,00,00,03,00,00,
1294926395,000000FA,false,Rx,0,8,1D,08,49,2A,02,49,49,00,
1294931289,00000741,false,Rx,0,6,00,00,00,00,00,00,00,00,
1294932293,00000201,false,Rx,0,8,00,FE,FE,00,00,00,27,00,
1294932293,00000101,false,Rx,0,8,00,00,00,00,00,00,03,00,
1294936410,000000FA,false,Rx,0,8,1D,48,49,2A,02,49,49,00,
1294937435,000001BA,false,Rx,0,6,2A,49,C0,49,61,A7,00,00,
1294938435,00000386,false,Rx,0,6,02,EB,E6,78,80,00,00,00,
1294940855,00000102,false,Rx,0,3,00,00,00,00,00,00,00,00,
1294946436,000000FA,false,Rx,0,8,1D,98,49,22,02,39,39,00,
1294951302,00000201,false,Rx,0,8,00,FE,FE,00,00,00,28,00,
1294956394,000000FA,false,Rx,0,8,1D,98,49,22,02,39,39,00,
1294957437,000001BA,false,Rx,0,6,22,49,C0,49,61,A7,00,00,
1294957438,00000711,false,Rx,0,8,00,03,DE,94,06,74,00,25,
1294966379,000000FA,false,Rx,0,8,1D,E8,42,1C,02,2C,2C,00,
1294971348,00000201,false,Rx,0,8,00,FE,FE,00,00,00,29,00,
1294972326,00000101,false,Rx,0,8,00,00,00,00,00,00,03,00,
1294977326,000000FA,false,Rx,0,8,1E,30,42,1C,02,2C,2C,00,
1294978349,000001BA,false,Rx,0,6,1C,42,C0,49,61,A7,00,00,
1294982099,00000102,false,Rx,0,3,00,00,00,00,00,00,00,00,
1294983118,0000077A,false,Rx,0,8,4C,37,5D,80,1E,00,00,FF,
1294984118,0000049A,false,Rx,0,7,00,45,84,86,98,61,DC,00,
1294986411,000000FA,false,Rx,0,8,1E,30,3B,14,02,1F,1F,00,
1294991300,00000201,false,Rx,0,8,00,FE,FE,00,00,00,2A,00,
1294996397,000000FA,false,Rx,0,8,1E,60,3B,14,02,1F,1F,00,
1294997405,000001BA,false,Rx,0,6,14,3B,C0,49,61,A7,00,00,
1295008245,000000FA,false,Rx,0,8,1E,60,34,10,02,1A,1A,00,
1295011418,00000201,false,Rx,0,8,00,FE,FE,00,00,00,2B,00,
1295012362,00000101,false,Rx,0,8,00,00,00,00,00,00,03,00,
1295016348,000000FA,false,Rx,0,8,1E,88,34,10,02,1A,1A,00,
1295017365,000001BA,false,Rx,0,6,10,34,C0,49,61,A7,00,00,
1295018376,00000766,false,Rx,0,8,00,04,00,00,00,03,00,00,
1295024367,00000102,false,Rx,0,3,00,00,00,00,00,00,00,00,
1295026423,000000FA,false,Rx,0,8,1E,80,2E,10,02,1A,1A,00,
1295031241,00000741,false,Rx,0,6,00,00,00,00,00,00,00,00,
1295032347,00000201,false,Rx,0,8,00,FE,FE,00,00,00,2C,00,
1295037676,000000FA,false,Rx,0,8,1E,80,2E,10,02,1A,1A,00,
1295038697,00000386,false,Rx,0,6,02,EB,E6,78,80,00,00,00,
1295038697,000001BA,false,Rx,0,6,10,2E,C0,49,61,A7,00,00,
1295046341,000000FA,false,Rx,0,8,1E,50,29,10,02,1A,1A,00,
1295051317,00000201,false,Rx,0,8,00,FE,FE,00,00,00,2D,00,
1295052311,00000101,false,Rx,0,8,00,00,00,00,00,00,03,00,
1295056355,000000FA,false,Rx,0,8,1E,28,29,10,02,1A,1A,00,
1295057348,000001BA,false,Rx,0,6,10,29,C0,49,61,A7,00,00,
1295063588,00000102,false,Rx,0,3,00,00,00,00,00,00,00,00,
1295065163,00000711,false,Rx,0,8,00,03,DE,94,06,74,00,25,
1295066414,000000FA,false,Rx,0,8,1E,28,27,10,02,1A,1A,00,
1295071295,00000201,false,Rx,0,8,00,FE,FE,00,00,00,2E,00,
1295076355,000000FA,false,Rx,0,8,1E,00,27,10,02,1A,1A,00,
1295077379,000001BA,false,Rx,0,6,10,27,C0,49,61,A7,00,00,
1295081087,0000077A,false,Rx,0,8,4C,37,5D,80,1E,00,00,FF,
1295082664,0000049A,false,Rx,0,7,00,45,84,86,98,61,DC,00,
1295086351,000000FA,false,Rx,0,8,1D,C0,25,10,02,1A,1A,00,
1295091294,00000201,false,Rx,0,8,00,FE,FE,00,00,00,2F,00,
1295092327,00000101,false,Rx,0,8,00,00,00,00,00,00,03,00,
1295096438,000000FA,false,Rx,0,8,1D,C0,25,10,02,1A,1A,00,
1295097454,000001BA,false,Rx,0,6,10,25,C0,49,61,A7,00,00,
1295104766,00000102,false,Rx,0,3,00,00,00,00,00,00,00,00,
1295106353,000000FA,false,Rx,0,8,1D,70,23,10,02,1A,1A,00,
1295111344,00000201,false,Rx,0,8,00,FE,FE,00,00,00,30,00,
1295117564,000000FA,false,Rx,0,8,1D,70,23,10,02,1A,1A,00,
1295118555,00000766,false,Rx,0,8,00,04,00,00,00,03,00,00,
1295118556,000001BA,false,Rx,0,6,10,23,C0,49,61,A7,00,00,
1295126302,000000FA,false,Rx,0,8,1D,18,21,10,02,1A,1A,00,
1295131281,00000741,false,Rx,0,6,00,00,00,00,00,00,00,00,
1295132302,00000201,false,Rx,0,8,00,FE,FE,00,00,00,31,00,
1295132302,00000101,false,Rx,0,8,00,00,00,00,00,00,03,00,
1295136321,000000FA,false,Rx,0,8,1C,C0,21,10,02,1A,1A,00,
1295137317,000001BA,false,Rx,0,6,10,21,C0,49,61,A7,00,00,
1295138331,00000386,false,Rx,0,6,02,EB,E6,78,80,00,00,00,
1295146013,00000102,false,Rx,0,3,00,00,00,00,00,00,00,00,
1295147008,000000FA,false,Rx,0,8,1C,C0,20,10,02,1A,1A,00,
1295151297,00000201,false,Rx,0,8,00,FE,FE,00,00,00,32,00,
1295156269,000000FA,false,Rx,0,8,1C,48,20,10,02,1A,1A,00,
1295157291,000001BA,false,Rx,0,6,10,20,C0,49,61,A7,00,00,
1295167456,000000FA,false,Rx,0,8,1C,48,1F,10,02,1A,1A,00,
1295170946,00000711,false,Rx,0,8,00,03,DE,94,06,74,00,25,
1295171960,00000201,false,Rx,0,8,00,FE,FE,00,00,00,33,00,
1295171960,00000101,false,Rx,0,8,00,00,00,00,00,00,03,00,
1295176342,000000FA,false,Rx,0,8,1B,B8,1F,10,02,1A,1A,00,
1295177312,000001BA,false,Rx,0,6,10,1F,C0,49,61,A7,00,00,
1295181145,0000077A,false,Rx,0,8,4C,37,5D,80,1E,00,00,FF,
1295182659,0000049A,false,Rx,0,7,00,45,84,86,98,61,DC,00,
1295186337,000000FA,false,Rx,0,8,1B,38,20,10,02,1A,1A,00,
1295187345,00000102,false,Rx,0,3,00,00,00,00,00,00,00,00,
1295191352,00000201,false,Rx,0,8,00,FE,FE,00,00,00,34,00,
1295196421,000000FA,false,Rx,0,8,1B,38,20,10,02,1A,1A,00,
1295197424,000001BA,false,Rx,0,6,10,20,C0,49,61,A7,00,00,
1295206259,000000FA,false,Rx,0,8,1A,B0,20,10,02,1A,1A,00,
1295211288,00000201,false,Rx,0,8,00,FE,FE,00,00,00,35,00,
1295212308,00000101,false,Rx,0,8,00,00,00,00,00,00,03,00,
1295216285,000000FA,false,Rx,0,8,1A,B0,20,10,02,1A,1A,00,
1295217257,000001BA,false,Rx,0,6,10,20,C0,49,61,A7,00,00,
1295218290,00000766,false,Rx,0,8,00,04,00,00,00,03,00,00,
1295226301,000000FA,false,Rx,0,8,1A,30,21,10,02,1A,1A,00,
1295227917,00000102,false,Rx,0,3,00,00,00,00,00,00,00,00,
1295231243,00000741,false,Rx,0,6,00,00,00,00,00,00,00,00,
1295232247,00000201,false,Rx,0,8,00,FE,FE,00,00,00,36,00,
1295236253,000000FA,false,Rx,0,8,1A,30,21,10,02,1A,1A,00,
1295237267,000001BA,false,Rx,0,6,10,21,C0,49,61,A7,00,00,
1295238290,00000386,false,Rx,0,6,02,EB,E6,78,80,00,00,00,
1295246226,000000FA,false,Rx,0,8,19,A0,22,10,02,1A,1A,00,
1295251288,00000201,false,Rx,0,8,00,FE,FE,00,00,00,37,00,
1295252311,00000101,false,Rx,0,8,00,00,00,00,00,00,03,00,
1295257529,000000FA,false,Rx,0,8,19,A0,22,10,02,1A,1A,00,
1295258516,000001BA,false,Rx,0,6,10,22,C0,49,61,A7,00,00,
1295266257,000000FA,false,Rx,0,8,19,28,2B,10,02,1A,1A,00,
1295268495,00000102,false,Rx,0,3,00,00,00,00,00,00,00,00,
1295271279,00000201,false,Rx,0,8,00,FE,FE,00,00,00,38,00,
1295276638,00000711,false,Rx,0,8,00,03,DE,94,06,74,00,25,
1295278172,000000FA,false,Rx,0,8,19,28,2B,10,02,1A,1A,00,
1295279152,000001BA,false,Rx,0,6,10,2B,C0,49,61,A7,00,00,
1295283131,0000077A,false,Rx,0,8,4C,38,5D,80,1E,00,00,FF,
1295284622,0000049A,false,Rx,0,7,00,45,84,86,98,61,DC,00,
1295286256,000000FA,false,Rx,0,8,18,B8,30,10,02,1A,1A,00,
1295291283,00000201,false,Rx,0,8,00,FE,FE,00,00,00,39,00,
1295292301,00000101,false,Rx,0,8,00,00,00,00,00,00,03,00,
1295296839,000000FA,false,Rx,0,8,18,50,30,10,02,1A,1A,00,
1295297843,000001BA,false,Rx,0,6,10,30,C0,49,61,A7,00,00,
1295306240,000000FA,false,Rx,0,8,18,50,35,10,02,1A,1A,00,
1295309627,00000102,false,Rx,0,3,00,00,00,00,00,00,00,00,
1295311245,00000201,false,Rx,0,8,00,FE,FE,00,00,00,3A,00,
1295316852,000000FA,false,Rx,0,8,17,E8,35,10,02,1A,1A,00,
1295317864,000001BA,false,Rx,0,6,10,35,C0,49,61,A7,00,00,
1295317864,00000766,false,Rx,0,8,00,04,00,00,00,03,00,00,
1295326224,000000FA,false,Rx,0,8,17,E8,3A,10,02,1A,1A,00,
1295331272,00000741,false,Rx,0,6,00,00,00,00,00,00,00,00,
1295332263,00000201,false,Rx,0,8,00,FE,FE,00,00,00,3B,00,
1295332263,00000101,false,Rx,0,8,00,00,00,00,00,00,03,00,
1295336316,000000FA,false,Rx,0,8,17,B8,3A,10,02,1A,1A,00,
1295337309,000001BA,false,Rx,0,6,10,3A,C0,49,61,A7,00,00,
1295338348,00000386,false,Rx,0,6,02,EB,E6,78,80,00,00,00,
1295346225,000000FA,false,Rx,0,8,17,B8,3E,10,02,1A,1A,00,
1295351291,00000201,false,Rx,0,8,00,FE,FE,00,00,00,3C,00,
1295352378,00000102,false,Rx,0,3,00,00,00,00,00,00,00,00,
1295356538,000000FA,false,Rx,0,8,17,98,3E,10,02,1A,1A,00,
1295357551,000001BA,false,Rx,0,6,10,3E,C0,49,61,A7,00,00,
1295366182,000000FA,false,Rx,0,8,17,98,41,10,02,1A,1A,00,
1295371281,00000201,false,Rx,0,8,00,FE,FE,00,00,00,3D,00,
1295372304,00000101,false,Rx,0,8,00,00,00,00,00,00,03,00,
1295376243,000000FA,false,Rx,0,8,17,98,41,10,02,1A,1A,00,
1295377266,000001BA,false,Rx,0,6,10,41,C0,49,61,A7,00,00,
1295381243,0000077A,false,Rx,0,8,4C,38,5D,80,1E,00,00,FF,
1295382706,0000049A,false,Rx,0,7,00,45,84,86,98,61,DC,00,
1295383762,00000711,false,Rx,0,8,00,03,DE,94,06,74,00,25,
1295386192,000000FA,false,Rx,0,8,17,98,42,10,02,1A,1A,00,
1295391253,00000201,false,Rx,0,8,00,FE,FE,00,00,00,3E,00,
1295392818,00000102,false,Rx,0,3,00,00,00,00,00,00,00,00,
1295396297,000000FA,false,Rx,0,8,17,98,42,10,02,1A,1A,00,
1295397348,000001BA,false,Rx,0,6,10,42,C0,49,61,A7,00,00,
1295406130,000000FA,false,Rx,0,8,17,98,42,10,02,1A,1A,00,
1295411298,00000201,false,Rx,0,8,00,FE,FE,00,00,00,3F,00,
1295412302,00000101,false,Rx,0,8,00,00,00,00,00,00,03,00,
1295416142,000000FA,false,Rx,0,8,17,B8,42,10,02,1A,1A,00,
1295417160,000001BA,false,Rx,0,6,10,42,C0,49,61,A7,00,00,
1295418159,00000766,false,Rx,0,8,00,04,00,00,00,03,00,00,
1295418159,0000069F,false,Rx,0,4,89,55,10,0F,00,00,00,00,
1295426197,000000FA,false,Rx,0,8,17,B8,41,10,02,1A,1A,00,
1295431171,00000741,false,Rx,0,6,00,00,00,00,00,00,00,00,
1295432304,00000201,false,Rx,0,8,00,FE,FE,00,00,00,40,00,
1295433244,00000102,false,Rx,0,3,00,00,00,00,00,00,00,00,
1295436191,000000FA,false,Rx,0,8,17,F0,41,10,02,1A,1A,00,
1295437173,000001BA,false,Rx,0,6,10,41,C0,49,61,A7,00,00,
1295438201,00000386,false,Rx,0,6,02,EB,E6,78,80,00,00,00,
1295446138,000000FA,false,Rx,0,8,17,F0,3F,10,02,1A,1A,00,
1295451324,00000201,false,Rx,0,8,00,FE,FE,00,00,00,41,00,
1295452312,00000101,false,Rx,0,8,00,00,00,00,00,00,03,00,
1295456180,000000FA,false,Rx,0,8,18,08,3F,10,02,1A,1A,00,
1295457176,000001BA,false,Rx,0,6,10,3F,C0,49,61,A7,00,00,
1295466270,000000FA,false,Rx,0,8,18,08,3C,10,02,1A,1A,00,
1295471257,00000201,false,Rx,0,8,00,FE,FE,00,00,00,42,00,
1295473145,00000102,false,Rx,0,3,00,00,00,00,00,00,00,00,
1295476183,000000FA,false,Rx,0,8,18,10,3C,10,02,1A,1A,00,
1295477188,000001BA,false,Rx,0,6,10,3C,C0,49,61,A7,00,00,
1295481103,0000077A,false,Rx,0,8,4C,38,5D,80,1E,00,00,FF,
1295482617,0000049A,false,Rx,0,7,00,45,84,86,98,61,DC,00,
1295486100,000000FA,false,Rx,0,8,18,10,3B,10,02,1A,1A,00,
1295489972,00000711,false,Rx,0,8,00,03,DE,94,06,74,00,25,
1295491276,00000201,false,Rx,0,8,00,FE,FE,00,00,00,43,00,
1295492274,00000101,false,Rx,0,8,00,00,00,00,00,00,03,00,
1295496142,000000FA,false,Rx,0,8,18,18,3B,10,02,1A,1A,00,
1295497123,000001BA,false,Rx,0,6,10,3B,C0,49,61,A7,00,00,
1295506220,000000FA,false,Rx,0,8,18,18,3A,10,02,1A,1A,00,
1295511280,00000201,false,Rx,0,8,00,FE,FE,00,00,00,44,00,
1295514496,00000102,false,Rx,0,3,00,00,00,00,00,00,00,00,
1295516061,000000FA,false,Rx,0,8,18,30,3A,10,02,1A,1A,00,
1295517077,000001BA,false,Rx,0,6,10,3A,C0,49,61,A7,00,00,
1295518157,00000766,false,Rx,0,8,00,04,00,00,00,03,00,00,
1295526064,000000FA,false,Rx,0,8,18,30,39,10,02,1A,1A,00,
1295531233,00000741,false,Rx,0,6,00,00,00,00,00,00,00,00,
1295532232,00000201,false,Rx,0,8,00,FE,FE,00,00,00,45,00,
1295532233,00000101,false,Rx,0,8,00,00,00,00,00,00,03,00,
1295536125,000000FA,false,Rx,0,8,18,20,39,10,02,1A,1A,00,
1295537126,000001BA,false,Rx,0,6,10,39,C0,49,61,A7,00,00,
1295538144,00000386,false,Rx,0,6,02,EB,E6,78,80,00,00,00,
1295546216,000000FA,false,Rx,0,8,18,20,38,10,02,1A,1A,00,
1295551250,00000201,false,Rx,0,8,00,FE,FE,00,00,00,46,00,
