Time Stamp,ID,Extended,Dir,Bus,LEN,D1,D2,D3,D4,D5,D6,D7,D8
5453,00000102,false,Rx,0,3,00,00,00,00,00,00,00,00,
11372,00000766,false,Rx,0,8,00,00,00,00,00,03,00,00,
46227,00000102,false,Rx,0,3,00,00,00,00,00,00,00,00,
47635,00000711,false,Rx,0,8,04,03,DE,4B,06,70,00,B1,
86426,00000102,false,Rx,0,3,00,00,00,00,00,00,00,00,
111462,00000766,false,Rx,0,8,00,00,00,00,00,03,00,00,
127491,00000102,false,Rx,0,3,00,00,00,00,00,00,00,00,
151051,00000711,false,Rx,0,8,04,03,DE,4B,06,70,00,B1,
167288,00000102,false,Rx,0,3,00,00,00,00,00,00,00,00,
208349,00000102,false,Rx,0,3,00,00,00,00,00,00,00,00,
211360,00000766,false,Rx,0,8,00,00,00,00,00,03,00,00,
250584,00000102,false,Rx,0,3,00,00,00,00,00,00,00,00,
257550,00000711,false,Rx,0,8,04,03,DE,4B,06,70,00,B1,
291649,00000102,false,Rx,0,3,00,00,00,00,00,00,00,00,
311306,00000766,false,Rx,0,8,00,00,00,00,00,03,00,00,
331239,00000102,false,Rx,0,3,00,00,00,00,00,00,00,00,
364116,00000711,false,Rx,0,8,04,03,DE,4B,06,70,00,B1,
372079,00000102,false,Rx,0,3,00,00,00,00,00,00,00,00,
411328,00000766,false,Rx,0,8,00,00,00,00,00,03,00,00,
412336,0000069F,false,Rx,0,4,89,55,10,0F,00,00,00,00,
413334,00000102,false,Rx,0,3,00,00,00,00,00,00,00,00,
453983,00000102,false,Rx,0,3,00,00,00,00,00,00,00,00,
470950,00000711,false,Rx,0,8,04,03,DE,4B,06,70,00,B1,
495019,00000102,false,Rx,0,3,00,00,00,00,00,00,00,00,
511311,00000766,false,Rx,0,8,00,00,00,00,00,03,00,00,
536651,00000102,false,Rx,0,3,00,00,00,00,00,00,00,00,
578721,00000102,false,Rx,0,3,00,00,00,00,00,00,00,00,
579897,00000711,false,Rx,0,8,04,03,DE,4B,06,70,00,B1,
611280,00000766,false,Rx,0,8,00,00,00,00,00,03,00,00,
619567,00000102,false,Rx,0,3,00,00,00,00,00,00,00,00,
634391,000007D1,false,Rx,0,7,03,DE,4B,00,00,00,FF,00,
658637,00000102,false,Rx,0,3,00,00,00,00,00,00,00,00,
684889,00000711,false,Rx,0,8,04,03,DE,4B,06,70,00,B1,
699713,00000102,false,Rx,0,3,00,00,00,00,00,00,00,00,
711322,00000766,false,Rx,0,8,00,00,00,00,00,03,00,00,
740659,00000102,false,Rx,0,3,00,00,00,00,00,00,00,00,
781687,00000102,false,Rx,0,3,00,00,00,00,00,00,00,00,
789990,00000711,false,Rx,0,8,04,03,DE,4B,06,70,00,B1,
811285,00000766,false,Rx,0,8,00,00,00,00,00,03,00,00,
822735,00000102,false,Rx,0,3,00,00,00,00,00,00,00,00,
863554,00000102,false,Rx,0,3,00,00,00,00,00,00,00,00,
896453,00000711,false,Rx,0,8,04,03,DE,4B,06,70,00,B1,
906562,00000102,false,Rx,0,3,00,00,00,00,00,00,00,00,
911268,00000766,false,Rx,0,8,00,00,00,00,00,03,00,00,
947346,00000102,false,Rx,0,3,00,00,00,00,00,00,00,00,
986530,00000102,false,Rx,0,3,00,00,00,00,00,00,00,00,
1003068,00000711,false,Rx,0,8,04,03,DE,4B,06,70,00,B1,
1011311,00000766,false,Rx,0,8,00,00,00,00,00,03,00,00,
1027360,00000102,false,Rx,0,3,00,00,00,00,00,00,00,00,
1068457,00000102,false,Rx,0,3,00,00,00,00,00,00,00,00,
1109314,00000102,false,Rx,0,3,00,00,00,00,00,00,00,00,
1110871,00000711,false,Rx,0,8,04,03,DE,4B,06,70,00,B1,
1111869,00000766,false,Rx,0,8,00,00,00,00,00,03,00,00,
1150274,00000102,false,Rx,0,3,00,00,00,00,00,00,00,00,
1191290,00000102,false,Rx,0,3,00,00,00,00,00,00,00,00,
1211224,00000766,false,Rx,0,8,00,00,00,00,00,03,00,00,
1216230,00000711,false,Rx,0,8,04,03,DE,4B,06,70,00,B1,
1235273,00000102,false,Rx,0,3,00,00,00,00,00,00,00,00,
1275125,00000102,false,Rx,0,3,00,00,00,00,00,00,00,00,
1311210,00000766,false,Rx,0,8,00,00,00,00,00,03,00,00,
1314100,00000102,false,Rx,0,3,00,00,00,00,00,00,00,00,
1322815,00000711,false,Rx,0,8,04,03,DE,4B,06,70,00,B1,
1355198,00000102,false,Rx,0,3,00,00,00,00,00,00,00,00,
1396011,00000102,false,Rx,0,3,00,00,00,00,00,00,00,00,
1411254,00000766,false,Rx,0,8,00,00,00,00,00,03,00,00,
1412296,0000069F,false,Rx,0,4,89,55,10,0F,00,00,00,00,
1430550,00000711,false,Rx,0,8,04,03,DE,4B,06,70,00,B1,
1436993,00000102,false,Rx,0,3,00,00,00,00,00,00,00,00,
1477910,00000102,false,Rx,0,3,00,00,00,00,00,00,00,00,
1511189,00000766,false,Rx,0,8,00,00,00,00,00,03,00,00,
1518814,00000102,false,Rx,0,3,00,00,00,00,00,00,00,00,
1536938,00000711,false,Rx,0,8,04,03,DE,4B,06,70,00,B1,
1561801,00000102,false,Rx,0,3,00,00,00,00,00,00,00,00,
1602886,00000102,false,Rx,0,3,00,00,00,00,00,00,00,00,
1611193,00000766,false,Rx,0,8,00,00,00,00,00,03,00,00,
1641810,00000102,false,Rx,0,3,00,00,00,00,00,00,00,00,
1643556,00000711,false,Rx,0,8,04,03,DE,4B,06,70,00,B1,
1682736,00000102,false,Rx,0,3,00,00,00,00,00,00,00,00,
1711143,00000766,false,Rx,0,8,00,00,00,00,00,03,00,00,
1723715,00000102,false,Rx,0,3,00,00,00,00,00,00,00,00,
1748835,00000711,false,Rx,0,8,04,03,DE,4B,06,70,00,B1,
1764656,00000102,false,Rx,0,3,00,00,00,00,00,00,00,00,
1805550,00000102,false,Rx,0,3,00,00,00,00,00,00,00,00,
1811174,00000766,false,Rx,0,8,00,00,00,00,00,03,00,00,
1846511,00000102,false,Rx,0,3,00,00,00,00,00,00,00,00,
1854830,00000711,false,Rx,0,8,04,03,DE,4B,06,70,00,B1,
1889581,00000102,false,Rx,0,3,00,00,00,00,00,00,00,00,
1911133,00000766,false,Rx,0,8,00,00,00,00,00,03,00,00,
1930301,00000102,false,Rx,0,3,00,00,00,00,00,00,00,00,
1961420,00000711,false,Rx,0,8,04,03,DE,4B,06,70,00,B1,
1969461,00000102,false,Rx,0,3,00,00,00,00,00,00,00,00,
2011098,00000766,false,Rx,0,8,00,00,00,00,00,03,00,00,
2012128,00000102,false,Rx,0,3,00,00,00,00,00,00,00,00,
2051476,00000102,false,Rx,0,3,00,00,00,00,00,00,00,00,
2070955,00000711,false,Rx,0,8,04,03,DE,4B,06,70,00,B1,
2092354,00000102,false,Rx,0,3,00,00,00,00,00,00,00,00,
2111130,00000766,false,Rx,0,8,00,00,00,00,00,03,00,00,
2133195,00000102,false,Rx,0,3,00,00,00,00,00,00,00,00,
2174529,00000102,false,Rx,0,3,00,00,00,00,00,00,00,00,
2175956,00000711,false,Rx,0,8,04,03,DE,4B,06,70,00,B1,
2211142,00000766,false,Rx,0,8,00,00,00,00,00,03,00,00,
2217287,00000102,false,Rx,0,3,00,00,00,00,00,00,00,00,
2257546,00000102,false,Rx,0,3,00,00,00,00,00,00,00,00,
2282246,00000711,false,Rx,0,8,04,03,DE,4B,06,70,00,B1,
2298154,00000102,false,Rx,0,3,00,00,00,00,00,00,00,00,
2311114,00000766,false,Rx,0,8,00,00,00,00,00,03,00,00,
2338146,00000102,false,Rx,0,3,00,00,00,00,00,00,00,00,
2379367,00000102,false,Rx,0,3,00,00,00,00,00,00,00,00,
2387954,00000711,false,Rx,0,8,04,03,DE,4B,06,70,00,B1,
2411154,00000766,false,Rx,0,8,00,00,00,00,00,03,00,00,
2412116,0000069F,false,Rx,0,4,89,55,10,0F,00,00,00,00,
2419869,00000102,false,Rx,0,3,00,00,00,00,00,00,00,00,
2460836,00000102,false,Rx,0,3,00,00,00,00,00,00,00,00,
2493980,00000711,false,Rx,0,8,04,03,DE,4B,06,70,00,B1,
2502193,00000102,false,Rx,0,3,00,00,00,00,00,00,00,00,
2511087,00000766,false,Rx,0,8,00,00,00,00,00,03,00,00,
2544813,00000102,false,Rx,0,3,00,00,00,00,00,00,00,00,
2585422,00000102,false,Rx,0,3,00,00,00,00,00,00,00,00,
2600367,00000711,false,Rx,0,8,04,03,DE,4B,06,70,00,B1,
2611087,00000766,false,Rx,0,8,00,00,00,00,00,03,00,00,
2624798,00000102,false,Rx,0,3,00,00,00,00,00,00,00,00,
2665764,00000102,false,Rx,0,3,00,00,00,00,00,00,00,00,
2707795,00000102,false,Rx,0,3,00,00,00,00,00,00,00,00,
2709333,00000711,false,Rx,0,8,04,03,DE,4B,06,70,00,B1,
2711037,00000766,false,Rx,0,8,00,00,00,00,00,03,00,00,
2747554,00000102,false,Rx,0,3,00,00,00,00,00,00,00,00,
2788518,00000102,false,Rx,0,3,00,00,00,00,00,00,00,00,
2811058,00000766,false,Rx,0,8,00,00,00,00,00,03,00,00,
2813374,00000711,false,Rx,0,8,04,03,DE,4B,06,70,00,B1,
2829584,00000102,false,Rx,0,3,00,00,00,00,00,00,00,00,
2872076,00000102,false,Rx,0,3,00,00,00,00,00,00,00,00,
2911008,00000766,false,Rx,0,8,00,00,00,00,00,03,00,00,
2912475,00000102,false,Rx,0,3,00,00,00,00,00,00,00,00,
2919870,00000711,false,Rx,0,8,04,03,DE,4B,06,70,00,B1,
2952437,00000102,false,Rx,0,3,00,00,00,00,00,00,00,00,
2993533,00000102,false,Rx,0,3,00,00,00,00,00,00,00,00,
3011048,00000766,false,Rx,0,8,00,00,00,00,00,03,00,00,
3026765,00000711,false,Rx,0,8,04,03,DE,4B,06,70,00,B1,
3034252,00000102,false,Rx,0,3,00,00,00,00,00,00,00,00,
3075783,00000102,false,Rx,0,3,00,00,00,00,00,00,00,00,
3111068,00000766,false,Rx,0,8,00,00,00,00,00,03,00,00,
3116128,00000102,false,Rx,0,3,00,00,00,00,00,00,00,00,
3134644,00000711,false,Rx,0,8,04,03,DE,4B,06,70,00,B1,
3157366,00000102,false,Rx,0,3,00,00,00,00,00,00,00,00,
3199252,00000102,false,Rx,0,3,00,00,00,00,00,00,00,00,
3211001,00000766,false,Rx,0,8,00,00,00,00,00,03,00,00,
3240010,00000102,false,Rx,0,3,00,00,00,00,00,00,00,00,
3241433,00000711,false,Rx,0,8,04,03,DE,4B,06,70,00,B1,
3281223,00000102,false,Rx,0,3,00,00,00,00,00,00,00,00,
3310984,00000766,false,Rx,0,8,00,00,00,00,00,03,00,00,
3321075,00000102,false,Rx,0,3,00,00,00,00,00,00,00,00,
3345803,00000711,false,Rx,0,8,04,03,DE,4B,06,70,00,B1,
3362453,00000102,false,Rx,0,3,00,00,00,00,00,00,00,00,
3404164,00000102,false,Rx,0,3,00,00,00,00,00,00,00,00,
3411024,00000766,false,Rx,0,8,00,00,00,00,00,03,00,00,
3412052,0000069F,false,Rx,0,4,89,55,10,0F,00,00,00,00,
3444894,00000102,false,Rx,0,3,00,00,00,00,00,00,00,00,
3452241,00000711,false,Rx,0,8,04,03,DE,4B,06,70,00,B1,
3485972,00000102,false,Rx,0,3,00,00,00,00,00,00,00,00,
3510960,00000766,false,Rx,0,8,00,00,00,00,00,03,00,00,
3525974,00000102,false,Rx,0,3,00,00,00,00,00,00,00,00,
3558787,00000711,false,Rx,0,8,04,03,DE,4B,06,70,00,B1,
3566755,00000102,false,Rx,0,3,00,00,00,00,00,00,00,00,
3607745,00000102,false,Rx,0,3,00,00,00,00,00,00,00,00,
3610963,00000766,false,Rx,0,8,00,00,00,00,00,03,00,00,
3642594,000007D1,false,Rx,0,7,03,DE,4B,00,00,00,FF,00,
3648600,00000102,false,Rx,0,3,00,00,00,00,00,00,00,00,
3667284,00000711,false,Rx,0,8,04,03,DE,4B,06,70,00,B1,
3689593,00000102,false,Rx,0,3,00,00,00,00,00,00,00,00,
3710943,00000766,false,Rx,0,8,00,00,00,00,00,03,00,00,
3733516,00000102,false,Rx,0,3,00,00,00,00,00,00,00,00,
3773314,00000102,false,Rx,0,3,00,00,00,00,00,00,00,00,
3774729,00000711,false,Rx,0,8,04,03,DE,4B,06,70,00,B1,
3810946,00000766,false,Rx,0,8,00,00,00,00,00,03,00,00,
3813608,00000102,false,Rx,0,3,00,00,00,00,00,00,00,00,
3853683,00000102,false,Rx,0,3,00,00,00,00,00,00,00,00,
3879209,00000711,false,Rx,0,8,04,03,DE,4B,06,70,00,B1,
3894439,00000102,false,Rx,0,3,00,00,00,00,00,00,00,00,
3910929,00000766,false,Rx,0,8,00,00,00,00,00,03,00,00,
3935372,00000102,false,Rx,0,3,00,00,00,00,00,00,00,00,
3976304,00000102,false,Rx,0,3,00,00,00,00,00,00,00,00,
3984821,00000711,false,Rx,0,8,04,03,DE,4B,06,70,00,B1,
4010911,00000766,false,Rx,0,8,00,00,00,00,00,03,00,00,
4017485,00000102,false,Rx,0,3,00,00,00,00,00,00,00,00,
4059273,00000102,false,Rx,0,3,00,00,00,00,00,00,00,00,
4091259,00000711,false,Rx,0,8,04,03,DE,4B,06,70,00,B1,
4101092,00000102,false,Rx,0,3,00,00,00,00,00,00,00,00,
4110875,00000766,false,Rx,0,8,00,00,00,00,00,03,00,00,
4141772,00000102,false,Rx,0,3,00,00,00,00,00,00,00,00,
4181179,00000102,false,Rx,0,3,00,00,00,00,00,00,00,00,
4197762,00000711,false,Rx,0,8,04,03,DE,4B,06,70,00,B1,
4210864,00000766,false,Rx,0,8,00,00,00,00,00,03,00,00,
4222190,00000102,false,Rx,0,3,00,00,00,00,00,00,00,00,
4262943,00000102,false,Rx,0,3,00,00,00,00,00,00,00,00,
4303953,00000102,false,Rx,0,3,00,00,00,00,00,00,00,00,
4305343,00000711,false,Rx,0,8,04,03,DE,4B,06,70,00,B1,
4310821,00000766,false,Rx,0,8,00,00,00,00,00,03,00,00,
4345053,00000102,false,Rx,0,3,00,00,00,00,00,00,00,00,
4387283,00000102,false,Rx,0,3,00,00,00,00,00,00,00,00,
4410727,00000711,false,Rx,0,8,04,03,DE,4B,06,70,00,B1,
4411713,00000766,false,Rx,0,8,00,00,00,00,00,03,00,00,
4412712,0000069F,false,Rx,0,4,89,55,10,0F,00,00,00,00,
4428495,00000102,false,Rx,0,3,00,00,00,00,00,00,00,00,
4468896,00000102,false,Rx,0,3,00,00,00,00,00,00,00,00,
4508809,00000102,false,Rx,0,3,00,00,00,00,00,00,00,00,
4510794,00000766,false,Rx,0,8,00,00,00,00,00,03,00,00,
4519264,00000711,false,Rx,0,8,04,03,DE,4B,06,70,00,B1,
4550809,00000102,false,Rx,0,3,00,00,00,00,00,00,00,00,
4592278,00000102,false,Rx,0,3,00,00,00,00,00,00,00,00,
4610814,00000766,false,Rx,0,8,00,00,00,00,00,03,00,00,
4623719,00000711,false,Rx,0,8,04,03,DE,4B,06,70,00,B1,
4633483,00000102,false,Rx,0,3,00,00,00,00,00,00,00,00,
4674032,00000102,false,Rx,0,3,00,00,00,00,00,00,00,00,
4710808,00000766,false,Rx,0,8,00,00,00,00,00,03,00,00,
4714995,00000102,false,Rx,0,3,00,00,00,00,00,00,00,00,
4731768,00000711,false,Rx,0,8,04,03,DE,4B,06,70,00,B1,
4754676,00000102,false,Rx,0,3,00,00,00,00,00,00,00,00,
4795874,00000102,false,Rx,0,3,00,00,00,00,00,00,00,00,
4810849,00000766,false,Rx,0,8,00,00,00,00,00,03,00,00,
4838031,00000102,false,Rx,0,3,00,00,00,00,00,00,00,00,
4839416,00000711,false,Rx,0,8,04,03,DE,4B,06,70,00,B1,
4879048,00000102,false,Rx,0,3,00,00,00,00,00,00,00,00,
4910734,00000766,false,Rx,0,8,00,00,00,00,00,03,00,00,
5010790,00000766,false,Rx,0,8,00,00,00,00,00,03,00,00,
5111068,00000766,false,Rx,0,8,00,00,00,00,00,03,00,00,
5210779,00000766,false,Rx,0,8,00,00,00,00,00,03,00,00,
5310899,00000766,false,Rx,0,8,00,00,00,00,00,03,00,00,
5410823,00000766,false,Rx,0,8,00,00,00,00,00,03,00,00,
5411981,0000069F,false,Rx,0,4,89,55,10,0F,00,00,00,00,
5510713,00000766,false,Rx,0,8,00,00,00,00,00,03,00,00,
5610764,00000766,false,Rx,0,8,00,00,00,00,00,03,00,00,
5710753,00000766,false,Rx,0,8,00,00,00,00,00,03,00,00,
5810663,00000766,false,Rx,0,8,00,00,00,00,00,03,00,00,
5910814,00000766,false,Rx,0,8,00,00,00,00,00,03,00,00,
6010669,00000766,false,Rx,0,8,00,00,00,00,00,03,00,00,
6110703,00000766,false,Rx,0,8,00,00,00,00,00,03,00,00,
6210677,00000766,false,Rx,0,8,00,00,00,00,00,03,00,00,
6310794,00000766,false,Rx,0,8,00,00,00,00,00,03,00,00,
6410751,00000766,false,Rx,0,8,00,00,00,00,00,03,00,00,
6411775,0000069F,false,Rx,0,4,89,55,10,0F,00,00,00,00,
6510632,00000766,false,Rx,0,8,00,00,00,00,00,03,00,00,
6610607,00000766,false,Rx,0,8,00,00,00,00,00,03,00,00,
6710642,00000766,false,Rx,0,8,00,00,00,00,00,03,00,00,
6810640,00000766,false,Rx,0,8,00,00,00,00,00,03,00,00,
6910718,00000766,false,Rx,0,8,00,00,00,00,00,03,00,00,
7010551,00000766,false,Rx,0,8,00,00,00,00,00,03,00,00,
7110615,00000766,false,Rx,0,8,00,00,00,00,00,03,00,00,
7210470,00000766,false,Rx,0,8,00,00,00,00,00,03,00,00,
7310572,00000766,false,Rx,0,8,00,00,00,00,00,03,00,00,
7410739,00000766,false,Rx,0,8,00,00,00,00,00,03,00,00,
7411652,0000069F,false,Rx,0,4,89,55,10,0F,00,00,00,00,
7510502,00000766,false,Rx,0,8,00,00,00,00,00,03,00,00,
7610630,00000766,false,Rx,0,8,00,00,00,00,00,03,00,00,
7710586,00000766,false,Rx,0,8,00,00,00,00,00,03,00,00,
7810629,00000766,false,Rx,0,8,00,00,00,00,00,03,00,00,
7910465,00000766,false,Rx,0,8,00,00,00,00,00,03,00,00,
8010443,00000766,false,Rx,0,8,00,00,00,00,00,03,00,00,
8110513,00000766,false,Rx,0,8,00,00,00,00,00,03,00,00,
8210432,00000766,false,Rx,0,8,00,00,00,00,00,03,00,00,
8310378,00000766,false,Rx,0,8,00,00,00,00,00,03,00,00,
8410729,00000766,false,Rx,0,8,00,00,00,00,00,03,00,00,
8411895,0000069F,false,Rx,0,4,89,55,10,0F,00,00,00,00,
8510347,00000766,false,Rx,0,8,00,00,00,00,00,03,00,00,
8610373,00000766,false,Rx,0,8,00,00,00,00,00,03,00,00,
8710344,00000766,false,Rx,0,8,00,00,00,00,00,03,00,00,
8810446,00000766,false,Rx,0,8,00,00,00,00,00,03,00,00,
8910477,00000766,false,Rx,0,8,00,00,00,00,00,03,00,00,
9010307,00000766,false,Rx,0,8,00,00,00,00,00,03,00,00,
9110452,00000766,false,Rx,0,8,00,00,00,00,00,03,00,00,
9210312,00000766,false,Rx,0,8,00,00,00,00,00,03,00,00,
9310405,00000766,false,Rx,0,8,00,00,00,00,00,03,00,00,
9410664,00000766,false,Rx,0,8,00,00,00,00,00,03,00,00,
9411789,0000069F,false,Rx,0,4,89,55,10,0F,00,00,00,00,
9510271,00000766,false,Rx,0,8,00,00,00,00,00,03,00,00,
9610406,00000766,false,Rx,0,8,00,00,00,00,00,03,00,00,
9710228,00000766,false,Rx,0,8,00,00,00,00,00,03,00,00,
9810362,00000766,false,Rx,0,8,00,00,00,00,00,03,00,00,
9910185,00000766,false,Rx,0,8,00,00,00,00,00,03,00,00,
10010223,00000766,false,Rx,0,8,00,00,00,00,00,03,00,00,
10110360,00000766,false,Rx,0,8,00,00,00,00,00,03,00,00,
10210184,00000766,false,Rx,0,8,00,00,00,00,00,03,00,00,
10310157,00000766,false,Rx,0,8,00,00,00,00,00,03,00,00,
10410669,00000766,false,Rx,0,8,00,00,00,00,00,03,00,00,
10410671,0000069F,false,Rx,0,4,89,55,10,0F,00,00,00,00,
10510151,00000766,false,Rx,0,8,00,00,00,00,00,03,00,00,
10610278,00000766,false,Rx,0,8,00,00,00,00,00,03,00,00,
10710133,00000766,false,Rx,0,8,00,00,00,00,00,03,00,00,
10810089,00000766,false,Rx,0,8,00,00,00,00,00,03,00,00,
10910089,00000766,false,Rx,0,8,00,00,00,00,00,03,00,00,
11010136,00000766,false,Rx,0,8,00,00,00,00,00,03,00,00,
11110141,00000766,false,Rx,0,8,00,00,00,00,00,03,00,00,
11210091,00000766,false,Rx,0,8,00,00,00,00,00,03,00,00,
11310071,00000766,false,Rx,0,8,00,00,00,00,00,03,00,00,
11410799,00000766,false,Rx,0,8,00,00,00,00,00,03,00,00,
11410800,0000069F,false,Rx,0,4,89,55,10,0F,00,00,00,00,
11510022,00000766,false,Rx,0,8,00,00,00,00,00,03,00,00,
11610011,00000766,false,Rx,0,8,00,00,00,00,00,03,00,00,
11709984,00000766,false,Rx,0,8,00,00,00,00,00,03,00,00,
11810011,00000766,false,Rx,0,8,00,00,00,00,00,03,00,00,
11909959,00000766,false,Rx,0,8,00,00,00,00,00,03,00,00,
12009998,00000766,false,Rx,0,8,00,00,00,00,00,03,00,00,
12110056,00000766,false,Rx,0,8,00,00,00,00,00,03,00,00,
12209950,00000766,false,Rx,0,8,00,00,00,00,00,03,00,00,
12309992,00000766,false,Rx,0,8,00,00,00,00,00,03,00,00,
12410719,00000766,false,Rx,0,8,00,00,00,00,00,03,00,00,
12410719,0000069F,false,Rx,0,4,89,55,10,0F,00,00,00,00,
12509950,00000766,false,Rx,0,8,00,00,00,00,00,03,00,00,
12610094,00000766,false,Rx,0,8,00,00,00,00,00,03,00,00,
12709887,00000766,false,Rx,0,8,00,00,00,00,00,03,00,00,
12809891,00000766,false,Rx,0,8,00,00,00,00,00,03,00,00,
12909863,00000766,false,Rx,0,8,00,00,00,00,00,03,00,00,
13009845,00000766,false,Rx,0,8,00,00,00,00,00,03,00,00,
13109861,00000766,false,Rx,0,8,00,00,00,00,00,03,00,00,
13209887,00000766,false,Rx,0,8,00,00,00,00,00,03,00,00,
13309780,00000766,false,Rx,0,8,00,00,00,00,00,03,00,00,
13410749,00000766,false,Rx,0,8,00,00,00,00,00,03,00,00,
13410750,0000069F,false,Rx,0,4,89,55,10,0F,00,00,00,00,
13509851,00000766,false,Rx,0,8,00,00,00,00,00,03,00,00,
13609807,00000766,false,Rx,0,8,00,00,00,00,00,03,00,00,
13709933,00000766,false,Rx,0,8,00,00,00,00,00,03,00,00,
13809823,00000766,false,Rx,0,8,00,00,00,00,00,03,00,00,
13909888,00000766,false,Rx,0,8,00,00,00,00,00,03,00,00,
14009721,00000766,false,Rx,0,8,00,00,00,00,00,03,00,00,
14109890,00000766,false,Rx,0,8,00,00,00,00,00,03,00,00,
14209769,00000766,false,Rx,0,8,00,00,00,00,00,03,00,00,
14309727,00000766,false,Rx,0,8,00,00,00,00,00,03,00,00,
14409865,00000766,false,Rx,0,8,00,00,00,00,00,03,00,00,
14410733,0000069F,false,Rx,0,4,89,55,10,0F,00,00,00,00,
14509819,00000766,false,Rx,0,8,00,00,00,00,00,03,00,00,
14609796,00000766,false,Rx,0,8,00,00,00,00,00,03,00,00,
14709698,00000766,false,Rx,0,8,00,00,00,00,00,03,00,00,
14809795,00000766,false,Rx,0,8,00,00,00,00,00,03,00,00,
14909754,00000766,false,Rx,0,8,00,00,00,00,00,03,00,00,
15009688,00000766,false,Rx,0,8,00,00,00,00,00,03,00,00,
15109839,00000766,false,Rx,0,8,00,00,00,00,00,03,00,00,
15209595,00000766,false,Rx,0,8,00,00,00,00,00,03,00,00,
15309672,00000766,false,Rx,0,8,00,00,00,00,00,03,00,00,
15409732,00000766,false,Rx,0,8,00,00,00,00,00,03,00,00,
15410668,0000069F,false,Rx,0,4,89,55,10,0F,00,00,00,00,
15509633,00000766,false,Rx,0,8,00,00,00,00,00,03,00,00,
15609683,00000766,false,Rx,0,8,00,00,00,00,00,03,00,00,
15709675,00000766,false,Rx,0,8,00,00,00,00,00,03,00,00,
15809703,00000766,false,Rx,0,8,00,00,00,00,00,03,00,00,
15909641,00000766,false,Rx,0,8,00,00,00,00,00,03,00,00,
16009576,00000766,false,Rx,0,8,00,00,00,00,00,03,00,00,
16109577,00000766,false,Rx,0,8,00,00,00,00,00,03,00,00,
16209455,00000766,false,Rx,0,8,00,00,00,00,00,03,00,00,
16309663,00000766,false,Rx,0,8,00,00,00,00,00,03,00,00,
16409487,00000766,false,Rx,0,8,00,00,00,00,00,03,00,00,
16410455,0000069F,false,Rx,0,4,89,55,10,0F,00,00,00,00,
16509452,00000766,false,Rx,0,8,00,00,00,00,00,03,00,00,
16609554,00000766,false,Rx,0,8,00,00,00,00,00,03,00,00,
16709443,00000766,false,Rx,0,8,00,00,00,00,00,03,00,00,
16809637,00000766,false,Rx,0,8,00,00,00,00,00,03,00,00,
16909421,00000766,false,Rx,0,8,00,00,00,00,00,03,00,00,
17009432,00000766,false,Rx,0,8,00,00,00,00,00,03,00,00,
17109567,00000766,false,Rx,0,8,00,00,00,00,00,03,00,00,
17209413,00000766,false,Rx,0,8,00,00,00,00,00,03,00,00,
17309380,00000766,false,Rx,0,8,00,00,00,00,00,03,00,00,
17409486,00000766,false,Rx,0,8,00,00,00,00,00,03,00,00,
17410491,0000069F,false,Rx,0,4,89,55,10,0F,00,00,00,00,
17509335,00000766,false,Rx,0,8,00,00,00,00,00,03,00,00,
17609314,00000766,false,Rx,0,8,00,00,00,00,00,03,00,00,
17709290,00000766,false,Rx,0,8,00,00,00,00,00,03,00,00,
17809332,00000766,false,Rx,0,8,00,00,00,00,00,03,00,00,
17909294,00000766,false,Rx,0,8,00,00,00,00,00,03,00,00,
18009276,00000766,false,Rx,0,8,00,00,00,00,00,03,00,00,
18109283,00000766,false,Rx,0,8,00,00,00,00,00,03,00,00,
18209307,00000766,false,Rx,0,8,00,00,00,00,00,03,00,00,
18309228,00000766,false,Rx,0,8,00,00,00,00,00,03,00,00,
18409450,00000766,false,Rx,0,8,00,00,00,00,00,03,00,00,
18410306,0000069F,false,Rx,0,4,89,55,10,0F,00,00,00,00,
18509193,00000766,false,Rx,0,8,00,00,00,00,00,03,00,00,
18609220,00000766,false,Rx,0,8,00,00,00,00,00,03,00,00,
18709169,00000766,false,Rx,0,8,00,00,00,00,00,03,00,00,
18809243,00000766,false,Rx,0,8,00,00,00,00,00,03,00,00,
18909228,00000766,false,Rx,0,8,00,00,00,00,00,03,00,00,
19009139,00000766,false,Rx,0,8,00,00,00,00,00,03,00,00,
19109162,00000766,false,Rx,0,8,00,00,00,00,00,03,00,00,
19209321,00000766,false,Rx,0,8,00,00,00,00,00,03,00,00,
19309098,00000766,false,Rx,0,8,00,00,00,00,00,03,00,00,
19409117,00000766,false,Rx,0,8,00,00,00,00,00,03,00,00,
19410243,0000069F,false,Rx,0,4,89,55,10,0F,00,00,00,00,
19509156,00000766,false,Rx,0,8,00,00,00,00,00,03,00,00,
19609099,00000766,false,Rx,0,8,00,00,00,00,00,03,00,00,
19709116,00000766,false,Rx,0,8,00,00,00,00,00,03,00,00,
19809085,00000766,false,Rx,0,8,00,00,00,00,00,03,00,00,
19909037,00000766,false,Rx,0,8,00,00,00,00,00,03,00,00,
20009019,00000766,false,Rx,0,8,00,00,00,00,00,03,00,00,
20109118,00000766,false,Rx,0,8,00,00,00,00,00,03,00,00,
20209102,00000766,false,Rx,0,8,00,00,00,00,00,03,00,00,
20308994,00000766,false,Rx,0,8,00,00,00,00,00,03,00,00,
20409018,00000766,false,Rx,0,8,00,00,00,00,00,03,00,00,
20410085,0000069F,false,Rx,0,4,89,55,10,0F,00,00,00,00,
20508987,00000766,false,Rx,0,8,00,00,00,00,00,03,00,00,
20608990,00000766,false,Rx,0,8,00,00,00,00,00,03,00,00,
20708990,00000766,false,Rx,0,8,00,00,00,00,00,03,00,00,
20808991,00000766,false,Rx,0,8,00,00,00,00,00,03,00,00,
20908995,00000766,false,Rx,0,8,00,00,00,00,00,03,00,00,
21008954,00000766,false,Rx,0,8,00,00,00,00,00,03,00,00,
21108916,00000766,false,Rx,0,8,00,00,00,00,00,03,00,00,
21208878,00000766,false,Rx,0,8,00,00,00,00,00,03,00,00,
21308992,00000766,false,Rx,0,8,00,00,00,00,00,03,00,00,
21408908,00000766,false,Rx,0,8,00,00,00,00,00,03,00,00,
21409882,0000069F,false,Rx,0,4,89,55,10,0F,00,00,00,00,
21508920,00000766,false,Rx,0,8,00,00,00,00,00,03,00,00,
21609060,00000766,false,Rx,0,8,00,00,00,00,00,03,00,00,
21708991,00000766,false,Rx,0,8,00,00,00,00,00,03,00,00,
21809039,00000766,false,Rx,0,8,00,00,00,00,00,03,00,00,
21908786,00000766,false,Rx,0,8,00,00,00,00,00,03,00,00,
22008808,00000766,false,Rx,0,8,00,00,00,00,00,03,00,00,
22109081,00000766,false,Rx,0,8,00,00,00,00,00,03,00,00,
22208821,00000766,false,Rx,0,8,00,00,00,00,00,03,00,00,
22308802,00000766,false,Rx,0,8,00,00,00,00,00,03,00,00,
22408900,00000766,false,Rx,0,8,00,00,00,00,00,03,00,00,
22409905,0000069F,false,Rx,0,4,89,55,10,0F,00,00,00,00,
22508764,00000766,false,Rx,0,8,00,00,00,00,00,03,00,00,
22608879,00000766,false,Rx,0,8,00,00,00,00,00,03,00,00,
22708988,00000766,false,Rx,0,8,00,00,00,00,00,03,00,00,
22808716,00000766,false,Rx,0,8,00,00,00,00,00,03,00,00,
22908836,00000766,false,Rx,0,8,00,00,00,00,00,03,00,00,
23008684,00000766,false,Rx,0,8,00,00,00,00,00,03,00,00,
23108669,00000766,false,Rx,0,8,00,00,00,00,00,03,00,00,
23208606,00000766,false,Rx,0,8,00,00,00,00,00,03,00,00,
23308648,00000766,false,Rx,0,8,00,00,00,00,00,03,00,00,
23408633,00000766,false,Rx,0,8,00,00,00,00,00,03,00,00,
23409622,0000069F,false,Rx,0,4,89,55,10,0F,00,00,00,00,
23508603,00000766,false,Rx,0,8,00,00,00,00,00,03,00,00,
23608621,00000766,false,Rx,0,8,00,00,00,00,00,03,00,00,
23708647,00000766,false,Rx,0,8,00,00,00,00,00,03,00,00,
23808616,00000766,false,Rx,0,8,00,00,00,00,00,03,00,00,
23908565,00000766,false,Rx,0,8,00,00,00,00,00,03,00,00,
24008642,00000766,false,Rx,0,8,00,00,00,00,00,03,00,00,
24108676,00000766,false,Rx,0,8,00,00,00,00,00,03,00,00,
24208556,00000766,false,Rx,0,8,00,00,00,00,00,03,00,00,
24308691,00000766,false,Rx,0,8,00,00,00,00,00,03,00,00,
24408697,00000766,false,Rx,0,8,00,00,00,00,00,03,00,00,
24409824,0000069F,false,Rx,0,4,89,55,10,0F,00,00,00,00,
24508471,00000766,false,Rx,0,8,00,00,00,00,00,03,00,00,
24608489,00000766,false,Rx,0,8,00,00,00,00,00,03,00,00,
24708488,00000766,false,Rx,0,8,00,00,00,00,00,03,00,00,
24808627,00000766,false,Rx,0,8,00,00,00,00,00,03,00,00,
24908608,00000766,false,Rx,0,8,00,00,00,00,00,03,00,00,
25008451,00000766,false,Rx,0,8,00,00,00,00,00,03,00,00,
25108481,00000766,false,Rx,0,8,00,00,00,00,00,03,00,00,
25208561,00000766,false,Rx,0,8,00,00,00,00,00,03,00,00,
25308375,00000766,false,Rx,0,8,00,00,00,00,00,03,00,00,
25408582,00000766,false,Rx,0,8,00,00,00,00,00,03,00,00,
25409424,0000069F,false,Rx,0,4,89,55,10,0F,00,00,00,00,
25508424,00000766,false,Rx,0,8,00,00,00,00,00,03,00,00,
25608379,00000766,false,Rx,0,8,00,00,00,00,00,03,00,00,
25708516,00000766,false,Rx,0,8,00,00,00,00,00,03,00,00,
25808359,00000766,false,Rx,0,8,00,00,00,00,00,03,00,00,
25908477,00000766,false,Rx,0,8,00,00,00,00,00,03,00,00,
26008494,00000766,false,Rx,0,8,00,00,00,00,00,03,00,00,
26108553,00000766,false,Rx,0,8,00,00,00,00,00,03,00,00,
26208379,00000766,false,Rx,0,8,00,00,00,00,00,03,00,00,
26308304,00000766,false,Rx,0,8,00,00,00,00,00,03,00,00,
26408282,00000766,false,Rx,0,8,00,00,00,00,00,03,00,00,
26409311,0000069F,false,Rx,0,4,89,55,10,0F,00,00,00,00,
26508239,00000766,false,Rx,0,8,00,00,00,00,00,03,00,00,
26608228,00000766,false,Rx,0,8,00,00,00,00,00,03,00,00,
26708292,00000766,false,Rx,0,8,00,00,00,00,00,03,00,00,
26808228,00000766,false,Rx,0,8,00,00,00,00,00,03,00,00,
26908191,00000766,false,Rx,0,8,00,00,00,00,00,03,00,00,
27008291,00000766,false,Rx,0,8,00,00,00,00,00,03,00,00,
27108202,00000766,false,Rx,0,8,00,00,00,00,00,03,00,00,
27208210,00000766,false,Rx,0,8,00,00,00,00,00,03,00,00,
27308167,00000766,false,Rx,0,8,00,00,00,00,00,03,00,00,
27408134,00000766,false,Rx,0,8,00,00,00,00,00,03,00,00,
27409146,0000069F,false,Rx,0,4,89,55,10,0F,00,00,00,00,
27508199,00000766,false,Rx,0,8,00,00,00,00,00,03,00,00,
27608150,00000766,false,Rx,0,8,00,00,00,00,00,03,00,00,
27708219,00000766,false,Rx,0,8,00,00,00,00,00,03,00,00,
27808111,00000766,false,Rx,0,8,00,00,00,00,00,03,00,00,
27908129,00000766,false,Rx,0,8,00,00,00,00,00,03,00,00,
28008093,00000766,false,Rx,0,8,00,00,00,00,00,03,00,00,
28108094,00000766,false,Rx,0,8,00,00,00,00,00,03,00,00,
28208091,00000766,false,Rx,0,8,00,00,00,00,00,03,00,00,
28308059,00000766,false,Rx,0,8,00,00,00,00,00,03,00,00,
28408048,00000766,false,Rx,0,8,00,00,00,00,00,03,00,00,
28409096,0000069F,false,Rx,0,4,89,55,10,0F,00,00,00,00,
28507999,00000766,false,Rx,0,8,00,00,00,00,00,03,00,00,
28607994,00000766,false,Rx,0,8,00,00,00,00,00,03,00,00,
28707982,00000766,false,Rx,0,8,00,00,00,00,00,03,00,00,
28807978,00000766,false,Rx,0,8,00,00,00,00,00,03,00,00,
28908015,00000766,false,Rx,0,8,00,00,00,00,00,03,00,00,
29007981,00000766,false,Rx,0,8,00,00,00,00,00,03,00,00,
29107911,00000766,false,Rx,0,8,00,00,00,00,00,03,00,00,
29207922,00000766,false,Rx,0,8,00,00,00,00,00,03,00,00,
29307939,00000766,false,Rx,0,8,00,00,00,00,00,03,00,00,
29407934,00000766,false,Rx,0,8,00,00,00,00,00,03,00,00,
29408933,0000069F,false,Rx,0,4,89,55,10,0F,00,00,00,00,
29507875,00000766,false,Rx,0,8,00,00,00,00,00,03,00,00,
29607924,00000766,false,Rx,0,8,00,00,00,00,00,03,00,00,
29707889,00000766,false,Rx,0,8,00,00,00,00,00,03,00,00,
29807884,00000766,false,Rx,0,8,00,00,00,00,00,03,00,00,
29907926,00000766,false,Rx,0,8,00,00,00,00,00,03,00,00,
30007936,00000766,false,Rx,0,8,00,00,00,00,00,03,00,00,
30107840,00000766,false,Rx,0,8,00,00,00,00,00,03,00,00,
30207880,00000766,false,Rx,0,8,00,00,00,00,00,03,00,00,
30307831,00000766,false,Rx,0,8,00,00,00,00,00,03,00,00,
30407884,00000766,false,Rx,0,8,00,00,00,00,00,03,00,00,
30408878,0000069F,false,Rx,0,4,89,55,10,0F,00,00,00,00,
30507793,00000766,false,Rx,0,8,00,00,00,00,00,03,00,00,
30607789,00000766,false,Rx,0,8,00,00,00,00,00,03,00,00,
30707741,00000766,false,Rx,0,8,00,00,00,00,00,03,00,00,
30807737,00000766,false,Rx,0,8,00,00,00,00,00,03,00,00,
30907739,00000766,false,Rx,0,8,00,00,00,00,00,03,00,00,
31007788,00000766,false,Rx,0,8,00,00,00,00,00,03,00,00,
31107797,00000766,false,Rx,0,8,00,00,00,00,00,03,00,00,
31208011,00000766,false,Rx,0,8,00,00,00,00,00,03,00,00,
31307772,00000766,false,Rx,0,8,00,00,00,00,00,03,00,00,
31407866,00000766,false,Rx,0,8,00,00,00,00,00,03,00,00,
31408874,0000069F,false,Rx,0,4,89,55,10,0F,00,00,00,00,
31507886,00000766,false,Rx,0,8,00,00,00,00,00,03,00,00,
31607818,00000766,false,Rx,0,8,00,00,00,00,00,03,00,00,
31707823,00000766,false,Rx,0,8,00,00,00,00,00,03,00,00,
31807823,00000766,false,Rx,0,8,00,00,00,00,00,03,00,00,
31907666,00000766,false,Rx,0,8,00,00,00,00,00,03,00,00,
32007777,00000766,false,Rx,0,8,00,00,00,00,00,03,00,00,
32107894,00000766,false,Rx,0,8,00,00,00,00,00,03,00,00,
32207618,00000766,false,Rx,0,8,00,00,00,00,00,03,00,00,
32307646,00000766,false,Rx,0,8,00,00,00,00,00,03,00,00,
32407736,00000766,false,Rx,0,8,00,00,00,00,00,03,00,00,
32408868,0000069F,false,Rx,0,4,89,55,10,0F,00,00,00,00,
32507587,00000766,false,Rx,0,8,00,00,00,00,00,03,00,00,
32607559,00000766,false,Rx,0,8,00,00,00,00,00,03,00,00,
32707610,00000766,false,Rx,0,8,00,00,00,00,00,03,00,00,
32807732,00000766,false,Rx,0,8,00,00,00,00,00,03,00,00,
32907563,00000766,false,Rx,0,8,00,00,00,00,00,03,00,00,
33007667,00000766,false,Rx,0,8,00,00,00,00,00,03,00,00,
33107643,00000766,false,Rx,0,8,00,00,00,00,00,03,00,00,
33207600,00000766,false,Rx,0,8,00,00,00,00,00,03,00,00,
33307618,00000766,false,Rx,0,8,00,00,00,00,00,03,00,00,
33407629,00000766,false,Rx,0,8,00,00,00,00,00,03,00,00,
33408630,0000069F,false,Rx,0,4,89,55,10,0F,00,00,00,00,
33507425,00000766,false,Rx,0,8,00,00,00,00,00,03,00,00,
33607623,00000766,false,Rx,0,8,00,00,00,00,00,03,00,00,
33707644,00000766,false,Rx,0,8,00,00,00,00,00,03,00,00,
33807672,00000766,false,Rx,0,8,00,00,00,00,00,03,00,00,
33907580,00000766,false,Rx,0,8,00,00,00,00,00,03,00,00,
34007553,00000766,false,Rx,0,8,00,00,00,00,00,03,00,00,
34107551,00000766,false,Rx,0,8,00,00,00,00,00,03,00,00,
34207511,00000766,false,Rx,0,8,00,00,00,00,00,03,00,00,
34307348,00000766,false,Rx,0,8,00,00,00,00,00,03,00,00,
34407385,00000766,false,Rx,0,8,00,00,00,00,00,03,00,00,
34408491,0000069F,false,Rx,0,4,89,55,10,0F,00,00,00,00,
34507588,00000766,false,Rx,0,8,00,00,00,00,00,03,00,00,
34607388,00000766,false,Rx,0,8,00,00,00,00,00,03,00,00,
34707346,00000766,false,Rx,0,8,00,00,00,00,00,03,00,00,
34807554,00000766,false,Rx,0,8,00,00,00,00,00,03,00,00,
34907548,00000766,false,Rx,0,8,00,00,00,00,00,03,00,00,
35007526,00000766,false,Rx,0,8,00,00,00,00,00,03,00,00,
35107416,00000766,false,Rx,0,8,00,00,00,00,00,03,00,00,
35207500,00000766,false,Rx,0,8,00,00,00,00,00,03,00,00,
35307454,00000766,false,Rx,0,8,00,00,00,00,00,03,00,00,
35407416,00000766,false,Rx,0,8,00,00,00,00,00,03,00,00,
35408517,0000069F,false,Rx,0,4,89,55,10,0F,00,00,00,00,
35507396,00000766,false,Rx,0,8,00,00,00,00,00,03,00,00,
35607239,00000766,false,Rx,0,8,00,00,00,00,00,03,00,00,
35707266,00000766,false,Rx,0,8,00,00,00,00,00,03,00,00,
35807332,00000766,false,Rx,0,8,00,00,00,00,00,03,00,00,
35907147,00000766,false,Rx,0,8,00,00,00,00,00,03,00,00,
36007327,00000766,false,Rx,0,8,00,00,00,00,00,03,00,00,
36107130,00000766,false,Rx,0,8,00,00,00,00,00,03,00,00,
36207185,00000766,false,Rx,0,8,00,00,00,00,00,03,00,00,
36307285,00000766,false,Rx,0,8,00,00,00,00,00,03,00,00,
36407168,00000766,false,Rx,0,8,00,00,00,00,00,03,00,00,
36408133,0000069F,false,Rx,0,4,89,55,10,0F,00,00,00,00,
36507213,00000766,false,Rx,0,8,00,00,00,00,00,03,00,00,
36607102,00000766,false,Rx,0,8,00,00,00,00,00,03,00,00,
36707081,00000766,false,Rx,0,8,00,00,00,00,00,03,00,00,
36807026,00000766,false,Rx,0,8,00,00,00,00,00,03,00,00,
36907056,00000766,false,Rx,0,8,00,00,00,00,00,03,00,00,
37007086,00000766,false,Rx,0,8,00,00,00,00,00,03,00,00,
37107097,00000766,false,Rx,0,8,00,00,00,00,00,03,00,00,
37207026,00000766,false,Rx,0,8,00,00,00,00,00,03,00,00,
37307059,00000766,false,Rx,0,8,00,04,00,00,00,03,00,00,
37326990,00000386,false,Rx,0,6,00,7E,61,13,92,00,00,00,
37370161,00000741,false,Rx,0,6,00,00,00,00,1A,06,00,00,
37371144,00000201,false,Rx,0,8,00,FE,FE,00,00,00,01,00,
37371145,00000101,false,Rx,0,8,00,00,00,00,00,00,8B,00,
37390214,00000201,false,Rx,0,8,00,FE,FE,00,00,00,02,00,
37407025,00000766,false,Rx,0,8,00,04,00,00,00,03,00,00,
37409274,0000069F,false,Rx,0,4,89,55,10,0F,00,00,00,00,
37410264,00000201,false,Rx,0,8,00,FE,FE,00,00,00,03,00,
37411289,00000101,false,Rx,0,8,00,00,00,00,00,00,8B,00,
37426881,00000386,false,Rx,0,6,00,7E,61,13,92,00,00,00,
37430193,00000201,false,Rx,0,8,00,FE,FE,00,00,00,04,00,
37450356,00000201,false,Rx,0,8,00,FE,FE,00,00,00,05,00,
37451349,00000101,false,Rx,0,8,00,00,00,00,00,00,8B,00,
37466875,00000386,false,Rx,0,6,02,7E,61,13,92,00,00,00,
37470136,00000741,false,Rx,0,6,00,00,00,00,1A,06,00,00,
37471160,00000201,false,Rx,0,8,00,FE,FE,00,00,00,06,00,
37490340,00000201,false,Rx,0,8,00,FE,FE,00,00,00,07,00,
37491472,00000101,false,Rx,0,8,00,00,00,00,00,00,8B,00,
37499759,000007DA,false,Rx,0,3,50,A0,80,00,00,00,00,00,
37507017,00000766,false,Rx,0,8,00,04,00,00,00,03,00,00,
37510448,00000201,false,Rx,0,8,00,FE,FE,00,00,00,08,00,
37512784,00000711,false,Rx,0,8,04,03,DE,4B,06,70,00,80,
37522516,00000102,false,Rx,0,3,00,00,03,00,00,00,00,00,
37526865,00000386,false,Rx,0,6,02,7E,61,13,92,00,00,00,
37530217,00000201,false,Rx,0,8,00,FE,FE,00,00,00,09,00,
37531212,00000101,false,Rx,0,8,00,00,00,00,00,00,8B,00,
37531213,000007D1,false,Rx,0,7,00,00,00,00,00,00,00,00,
37535280,000000FA,false,Rx,0,8,00,00,32,10,02,00,00,00,
37536305,000001BA,false,Rx,0,6,10,32,C0,4B,69,19,00,00,
37539808,0000077A,false,Rx,0,8,5B,00,00,02,1C,00,01,FF,
37541679,0000049A,false,Rx,0,7,05,0F,80,4A,72,1F,C6,00,
37545191,000000FA,false,Rx,0,8,00,00,00,10,22,1C,1C,00,
37550223,00000201,false,Rx,0,8,00,FE,FE,00,00,00,0A,00,
37555180,000000FA,false,Rx,0,8,00,00,00,10,22,1C,1C,00,
37556194,000001BA,false,Rx,0,6,10,00,C0,47,61,32,00,00,
37562217,00000102,false,Rx,0,3,00,00,03,00,00,00,00,00,
37565179,000000FA,false,Rx,0,8,00,00,00,10,22,1C,1C,00,
37570031,00000741,false,Rx,0,6,00,00,00,00,1A,06,00,00,
37571026,00000201,false,Rx,0,8,00,FE,FE,00,00,00,0B,00,
37571027,00000101,false,Rx,0,8,00,00,00,00,00,00,8B,00,
37575151,000000FA,false,Rx,0,8,00,00,00,10,22,1C,1C,00,
37576180,000001BA,false,Rx,0,6,10,00,C0,47,61,32,00,00,
37585151,000000FA,false,Rx,0,8,00,00,00,10,22,1C,1C,00,
37590125,00000201,false,Rx,0,8,00,FE,FE,00,00,00,0C,00,
37595528,000000FA,false,Rx,0,8,00,00,00,10,22,1C,1C,00,
37596553,000001BA,false,Rx,0,6,10,00,C0,47,61,32,00,00,
37603024,00000102,false,Rx,0,3,00,00,00,00,00,00,00,00,
37605404,000000FA,false,Rx,0,8,00,00,1C,10,22,1C,1C,00,
37607018,00000766,false,Rx,0,8,00,04,00,00,00,03,00,00,
37610404,00000201,false,Rx,0,8,00,FE,FE,00,00,00,0D,00,
37611428,00000101,false,Rx,0,8,00,00,00,00,00,00,8B,00,
37615157,000000FA,false,Rx,0,8,00,00,1C,10,22,1C,1C,00,
37616151,000001BA,false,Rx,0,6,10,1C,C0,47,61,32,00,00,
37619199,00000711,false,Rx,0,8,04,03,DE,4B,06,70,00,80,
37625229,000000FA,false,Rx,0,8,00,00,1C,10,22,1C,1C,00,
37627113,00000386,false,Rx,0,6,06,00,07,73,19,00,00,00,
37630031,00000201,false,Rx,0,8,00,FE,FE,00,00,00,0E,00,
37635160,000000FA,false,Rx,0,8,00,00,1C,10,22,1C,1C,00,
37636178,000001BA,false,Rx,0,6,10,1C,C0,47,61,32,00,00,
37637176,000007D1,false,Rx,0,7,03,DE,4B,00,00,00,FF,00,
37639553,0000077A,false,Rx,0,8,5B,00,00,22,1C,00,00,FF,
37641182,0000049A,false,Rx,0,7,00,AE,8D,AE,82,CF,8F,00,
37643916,00000102,false,Rx,0,3,00,00,00,00,00,00,00,00,
37645538,000000FA,false,Rx,0,8,00,00,1C,10,22,1C,1C,00,
37650356,00000201,false,Rx,0,8,00,FE,FE,00,00,00,0F,00,
37651412,00000101,false,Rx,0,8,00,00,00,00,00,00,8B,00,
37655120,000000FA,false,Rx,0,8,00,00,1C,10,22,1C,1C,00,
37656133,000001BA,false,Rx,0,6,10,1C,C0,47,61,32,00,00,
37665492,000000FA,false,Rx,0,8,00,00,1C,10,22,1C,1C,00,
37670025,00000741,false,Rx,0,6,00,00,00,00,1A,06,00,00,
37671107,00000201,false,Rx,0,8,00,FE,FE,00,00,00,10,00,
37675133,000000FA,false,Rx,0,8,00,00,1C,10,22,1C,1C,00,
37676152,000001BA,false,Rx,0,6,10,1C,C0,47,61,32,00,00,
37685176,000000FA,false,Rx,0,8,00,00,1C,10,22,1C,1C,00,
37686231,00000102,false,Rx,0,3,00,00,00,00,00,00,00,00,
37690449,00000201,false,Rx,0,8,00,FE,FE,00,00,00,11,00,
37691473,00000101,false,Rx,0,8,00,00,00,00,00,00,8B,00,
37695473,000000FA,false,Rx,0,8,00,00,1C,10,22,1C,1C,00,
37696464,000001BA,false,Rx,0,6,10,1C,C0,47,61,32,00,00,
37705290,000000FA,false,Rx,0,8,00,00,1C,10,22,1C,1C,00,
37707000,00000766,false,Rx,0,8,00,04,00,00,00,03,00,00,
37710158,00000201,false,Rx,0,8,00,FE,FE,00,00,00,12,00,
37715123,000000FA,false,Rx,0,8,00,00,1C,10,22,1C,1C,00,
37716139,000001BA,false,Rx,0,6,10,1C,C0,47,61,32,00,00,
37725135,000000FA,false,Rx,0,8,00,00,1C,10,22,1C,1C,00,
37726152,00000102,false,Rx,0,3,00,00,00,00,00,00,00,00,
37727156,00000386,false,Rx,0,6,02,7E,61,13,92,00,00,00,
37728187,00000711,false,Rx,0,8,04,03,DE,4B,06,70,00,80,
37730238,00000201,false,Rx,0,8,00,FE,FE,00,00,00,13,00,
37731238,00000101,false,Rx,0,8,00,00,00,00,00,00,8B,00,
37735114,000000FA,false,Rx,0,8,00,00,1C,10,22,1C,1C,00,
37736139,000001BA,false,Rx,0,6,10,1C,C0,47,61,32,00,00,
37737134,000007D1,false,Rx,0,7,03,DE,4B,00,00,00,FF,00,
37739404,0000077A,false,Rx,0,8,5B,00,5D,22,1C,00,00,FF,
37740966,0000049A,false,Rx,0,7,00,AE,8D,AE,82,CF,8F,00,
37745442,000000FA,false,Rx,0,8,00,00,1C,10,22,1C,1C,00,
37750243,00000201,false,Rx,0,8,00,FE,FE,00,00,00,14,00,
37755138,000000FA,false,Rx,0,8,00,00,1C,10,22,1C,1C,00,
37756134,000001BA,false,Rx,0,6,10,1C,C0,47,61,32,00,00,
37765061,000000FA,false,Rx,0,8,00,00,1C,10,22,1C,1C,00,
37766433,00000102,false,Rx,0,3,00,00,00,00,00,00,00,00,
37770183,00000741,false,Rx,0,6,00,00,00,00,1A,06,00,00,
37771205,00000201,false,Rx,0,8,00,FE,FE,00,00,00,15,00,
37771206,00000101,false,Rx,0,8,00,00,00,00,00,00,8B,00,
37775068,000000FA,false,Rx,0,8,00,00,1C,10,22,1C,1C,00,
37776093,000001BA,false,Rx,0,6,10,1C,C0,47,61,32,00,00,
37785034,000000FA,false,Rx,0,8,00,00,1C,10,22,1C,1C,00,
37790132,00000201,false,Rx,0,8,00,FE,FE,00,00,00,16,00,
37795407,000000FA,false,Rx,0,8,00,00,1C,10,22,1C,1C,00,
37796429,000001BA,false,Rx,0,6,10,1C,C0,47,61,32,00,00,
37805028,000000FA,false,Rx,0,8,00,00,1C,10,22,1C,1C,00,
37806905,00000766,false,Rx,0,8,00,04,00,00,00,03,00,00,
37808693,00000102,false,Rx,0,3,00,00,00,00,00,00,00,00,
37810273,00000201,false,Rx,0,8,00,FE,FE,00,00,00,17,00,
37811297,00000101,false,Rx,0,8,00,00,00,00,00,00,8B,00,
37815062,000000FA,false,Rx,0,8,00,00,1C,10,22,1C,1C,00,
37816076,000001BA,false,Rx,0,6,10,1C,C0,47,61,32,00,00,
37825157,000000FA,false,Rx,0,8,00,00,1C,10,22,1C,1C,00,
37826932,00000386,false,Rx,0,6,02,7E,61,13,92,00,00,00,
37830396,00000201,false,Rx,0,8,00,FE,FE,00,00,00,18,00,
37832424,00000711,false,Rx,0,8,04,03,DE,4B,06,70,00,80,
37835083,000000FA,false,Rx,0,8,00,00,1C,10,22,1C,1C,00,
37836090,000001BA,false,Rx,0,6,10,1C,C0,47,61,32,00,00,
37837087,000007D1,false,Rx,0,7,03,DE,4B,00,00,00,FF,00,
37839426,0000077A,false,Rx,0,8,5B,00,5D,22,1C,00,00,FF,
37840948,0000049A,false,Rx,0,7,00,AE,8D,AE,82,CF,8F,00,
37845574,000000FA,false,Rx,0,8,00,00,1C,10,22,1C,1C,00,
37849984,00000102,false,Rx,0,3,00,00,00,00,00,00,00,00,
37850833,00000201,false,Rx,0,8,00,FE,FE,00,00,00,19,00,
37850833,00000101,false,Rx,0,8,00,00,00,00,00,00,8B,00,
37855032,000000FA,false,Rx,0,8,00,00,1C,10,22,1C,1C,00,
37856025,000001BA,false,Rx,0,6,10,1C,C0,47,61,32,00,00,
37865033,000000FA,false,Rx,0,8,00,00,1C,10,22,1C,1C,00,
37870402,00000741,false,Rx,0,6,00,00,00,00,1A,06,00,00,
37871300,00000201,false,Rx,0,8,00,FE,FE,00,00,00,1A,00,
37875036,000000FA,false,Rx,0,8,00,00,1C,10,22,1C,1C,00,
37876053,000001BA,false,Rx,0,6,10,1C,C0,47,61,32,00,00,
37885060,000000FA,false,Rx,0,8,00,00,1C,10,22,1C,1C,00,
37889992,00000102,false,Rx,0,3,00,00,00,00,00,00,00,00,
37891100,00000201,false,Rx,0,8,00,FE,FE,00,00,00,1B,00,
37891100,00000101,false,Rx,0,8,00,00,00,00,00,00,8B,00,
37895390,000000FA,false,Rx,0,8,00,00,1C,10,22,1C,1C,00,
37896378,000001BA,false,Rx,0,6,10,1C,C0,47,61,32,00,00,
37905008,000000FA,false,Rx,0,8,00,00,1C,10,22,1C,1C,00,
37906939,00000766,false,Rx,0,8,00,04,00,00,00,03,00,00,
37910256,00000201,false,Rx,0,8,00,FE,FE,00,00,00,1C,00,
37915036,000000FA,false,Rx,0,8,00,00,1C,10,22,1C,1C,00,
37916025,000001BA,false,Rx,0,6,10,1C,C0,47,61,32,00,00,
37916026,000007D1,false,Rx,0,7,03,DE,4B,00,00,00,FF,00,
37925087,000000FA,false,Rx,0,8,00,00,1C,10,22,1C,1C,00,
37926936,00000386,false,Rx,0,6,02,7E,61,13,92,00,00,00,
37930438,00000201,false,Rx,0,8,00,FE,FE,00,00,00,1D,00,
37931309,00000101,false,Rx,0,8,00,00,00,00,00,00,8B,00,
37932274,00000102,false,Rx,0,3,00,00,00,00,00,00,00,00,
37934988,000000FA,false,Rx,0,8,00,00,1C,10,22,1C,1C,00,
37936006,000001BA,false,Rx,0,6,10,1C,C0,47,61,32,00,00,
37939274,0000077A,false,Rx,0,8,5B,00,5D,20,1C,00,00,FF,
37940301,00000711,false,Rx,0,8,04,03,DE,4B,06,70,00,80,
37941300,0000049A,false,Rx,0,7,00,AE,8D,AE,82,CF,8F,00,
37945391,000000FA,false,Rx,0,8,00,00,1C,10,22,1C,1C,00,
37950435,00000201,false,Rx,0,8,00,FE,FE,00,00,00,1E,00,
37954969,000000FA,false,Rx,0,8,00,00,1C,10,22,1C,1C,00,
37955983,000001BA,false,Rx,0,6,10,1C,C0,47,61,32,00,00,
37964966,000000FA,false,Rx,0,8,00,00,1C,10,22,1C,1C,00,
37970177,00000741,false,Rx,0,6,00,00,00,00,1A,06,00,00,
37971177,00000201,false,Rx,0,8,00,FE,FE,00,00,00,1F,00,
37971177,00000101,false,Rx,0,8,00,00,00,00,00,00,8B,00,
37972178,00000102,false,Rx,0,3,00,00,00,00,00,00,00,00,
37974951,000000FA,false,Rx,0,8,00,00,1C,10,22,1C,1C,00,
37975963,000001BA,false,Rx,0,6,10,1C,C0,47,61,32,00,00,
37985012,000000FA,false,Rx,0,8,00,00,1C,10,22,1C,1C,00,
37990432,00000201,false,Rx,0,8,00,FE,FE,00,00,00,20,00,
37995333,000000FA,false,Rx,0,8,00,00,1C,10,22,1C,1C,00,
37996339,000001BA,false,Rx,0,6,10,1C,C0,47,61,32,00,00,
38005018,000000FA,false,Rx,0,8,00,00,1C,10,22,1C,1C,00,
38007001,00000766,false,Rx,0,8,00,04,00,00,00,03,00,00,
38010362,00000201,false,Rx,0,8,00,FE,FE,00,00,00,21,00,
38011465,00000101,false,Rx,0,8,00,00,00,00,00,00,8B,00,
38012484,00000102,false,Rx,0,3,00,00,00,00,00,00,00,00,
38014934,000000FA,false,Rx,0,8,00,00,1C,10,22,1C,1C,00,
38015939,000001BA,false,Rx,0,6,10,1C,C0,47,61,32,00,00,
38025006,000000FA,false,Rx,0,8,00,00,1C,10,22,1C,1C,00,
38027000,00000386,false,Rx,0,6,02,7E,61,13,92,00,00,00,
38030184,00000201,false,Rx,0,8,00,FE,FE,00,00,00,22,00,
38034944,000000FA,false,Rx,0,8,00,00,1C,10,22,1C,1C,00,
38035962,000001BA,false,Rx,0,6,10,1C,C0,47,61,32,00,00,
38039302,0000077A,false,Rx,0,8,5B,00,5D,20,1C,00,00,FF,
38040834,0000049A,false,Rx,0,7,00,AE,8D,AE,82,CF,8F,00,
38045353,000000FA,false,Rx,0,8,00,00,1C,10,22,1C,1C,00,
38047006,00000711,false,Rx,0,8,14,03,DE,4B,06,70,00,80,
38050276,00000201,false,Rx,0,8,00,FE,FE,00,00,00,23,00,
38051273,00000101,false,Rx,0,8,00,00,00,00,00,00,8B,00,
38054935,000000FA,false,Rx,0,8,00,00,1C,10,22,1C,1C,00,
38055925,000001BA,false,Rx,0,6,10,1C,C0,47,61,32,00,00,
38055925,00000102,false,Rx,0,3,00,00,00,00,00,00,00,00,
38065006,000000FA,false,Rx,0,8,00,00,1C,10,22,1C,1C,00,
38070176,00000741,false,Rx,0,6,00,00,00,00,1A,06,00,00,
38071252,00000201,false,Rx,0,8,00,FE,FE,00,00,00,24,00,
38074934,000000FA,false,Rx,0,8,00,00,1C,10,22,1C,1C,00,
38075927,000001BA,false,Rx,0,6,10,1C,C0,47,61,32,00,00,
38085002,000000FA,false,Rx,0,8,00,00,1C,10,22,1C,1C,00,
38090226,00000201,false,Rx,0,8,00,FE,FE,00,00,00,25,00,
38091246,00000101,false,Rx,0,8,00,00,00,00,00,00,8B,00,
38095277,000000FA,false,Rx,0,8,00,00,1C,10,22,1C,1C,00,
38096275,00000102,false,Rx,0,3,00,00,00,00,00,00,00,00,
38096275,000001BA,false,Rx,0,6,10,1C,C0,47,61,32,00,00,
38104917,000000FA,false,Rx,0,8,00,00,1C,10,22,1C,1C,00,
38106981,00000766,false,Rx,0,8,00,04,00,00,00,03,00,00,
38110371,00000201,false,Rx,0,8,00,FE,FE,00,00,00,26,00,
38114914,000000FA,false,Rx,0,8,00,00,1C,10,22,1C,1C,00,
38115907,000001BA,false,Rx,0,6,10,1C,C0,47,61,32,00,00,
38124960,000000FA,false,Rx,0,8,00,00,1C,10,22,1C,1C,00,
38127006,00000386,false,Rx,0,6,02,7E,61,13,92,00,00,00,
38130355,00000201,false,Rx,0,8,00,FE,FE,00,00,00,27,00,
38131356,00000101,false,Rx,0,8,00,00,00,00,00,00,8B,00,
38134917,000000FA,false,Rx,0,8,00,00,1C,10,22,1C,1C,00,
38135929,000001BA,false,Rx,0,6,10,1C,C0,47,61,32,00,00,
38138179,00000102,false,Rx,0,3,00,00,00,00,00,00,00,00,
38139178,0000077A,false,Rx,0,8,5B,00,5D,20,1C,00,00,FF,
38140711,0000049A,false,Rx,0,7,00,AE,8D,AE,82,CF,8F,00,
38145232,000000FA,false,Rx,0,8,00,00,1C,10,22,1C,1C,00,
38150286,00000201,false,Rx,0,8,00,FE,FE,00,00,00,28,00,
38152002,00000711,false,Rx,0,8,04,03,DE,4B,06,70,00,80,
38154863,000000FA,false,Rx,0,8,00,00,1C,10,22,1C,1C,00,
38155881,000001BA,false,Rx,0,6,10,1C,C0,47,61,32,00,00,
38164862,000000FA,false,Rx,0,8,00,00,1C,10,22,1C,1C,00,
38170178,00000741,false,Rx,0,6,00,00,00,00,1A,06,00,00,
38171178,00000201,false,Rx,0,8,00,FE,FE,00,00,00,29,00,
38171178,00000101,false,Rx,0,8,00,00,00,00,00,00,8B,00,
38174867,000000FA,false,Rx,0,8,00,00,1C,10,22,1C,1C,00,
38175879,000001BA,false,Rx,0,6,10,1C,C0,47,61,32,00,00,
38177378,00000102,false,Rx,0,3,00,00,00,00,00,00,00,00,
38184824,000000FA,false,Rx,0,8,00,00,1C,10,22,1C,1C,00,
38190239,00000201,false,Rx,0,8,00,FE,FE,00,00,00,2A,00,
38195221,000000FA,false,Rx,0,8,00,00,1C,10,22,1C,1C,00,
38196236,000001BA,false,Rx,0,6,10,1C,C0,47,61,32,00,00,
38204920,000000FA,false,Rx,0,8,00,00,1C,10,22,1C,1C,00,
38206907,00000766,false,Rx,0,8,00,04,00,00,00,03,00,00,
38210284,00000201,false,Rx,0,8,00,FE,FE,00,00,00,2B,00,
38211305,00000101,false,Rx,0,8,00,00,00,00,00,00,8B,00,
38214888,000000FA,false,Rx,0,8,00,00,1C,10,22,1C,1C,00,
38215921,000001BA,false,Rx,0,6,10,1C,C0,47,61,32,00,00,
38217354,00000102,false,Rx,0,3,00,00,00,00,00,00,00,00,
38224860,000000FA,false,Rx,0,8,00,00,1C,10,22,1C,1C,00,
38226784,00000386,false,Rx,0,6,02,7E,61,13,92,00,00,00,
38230155,00000201,false,Rx,0,8,00,FE,FE,00,00,00,2C,00,
38234871,000000FA,false,Rx,0,8,00,00,1C,10,22,1C,1C,00,
38235905,000001BA,false,Rx,0,6,10,1C,C0,47,61,32,00,00,
38239199,0000077A,false,Rx,0,8,5B,00,5D,20,1C,00,00,FF,
38240752,0000049A,false,Rx,0,7,00,AE,8D,AE,82,CF,8F,00,
38245279,000000FA,false,Rx,0,8,00,00,1C,10,22,1C,1C,00,
38250198,00000201,false,Rx,0,8,00,FE,FE,00,00,00,2D,00,
38251218,00000101,false,Rx,0,8,00,00,00,00,00,00,8B,00,
38254847,000000FA,false,Rx,0,8,00,00,1C,10,22,1C,1C,00,
38255869,000001BA,false,Rx,0,6,10,1C,C0,47,61,32,00,00,
38258258,00000102,false,Rx,0,3,00,00,00,00,00,00,00,00,
38259830,00000711,false,Rx,0,8,04,03,DE,4B,06,70,00,80,
38264793,000000FA,false,Rx,0,8,00,00,1C,10,22,1C,1C,00,
38270106,00000741,false,Rx,0,6,00,00,00,00,1A,06,00,00,
38271068,00000201,false,Rx,0,8,00,FE,FE,00,00,00,2E,00,
38274883,000000FA,false,Rx,0,8,00,00,1C,10,22,1C,1C,00,
38275897,000001BA,false,Rx,0,6,10,1C,C0,47,61,32,00,00,
38284856,000000FA,false,Rx,0,8,00,00,1C,10,22,1C,1C,00,
38290233,00000201,false,Rx,0,8,00,FE,FE,00,00,00,2F,00,
38291220,00000101,false,Rx,0,8,00,00,00,00,00,00,8B,00,
38295223,000000FA,false,Rx,0,8,00,00,1C,10,22,1C,1C,00,
38296244,000001BA,false,Rx,0,6,10,1C,C0,47,61,32,00,00,
38299269,00000102,false,Rx,0,3,00,00,00,00,00,00,00,00,
38304778,000000FA,false,Rx,0,8,00,00,1C,10,22,1C,1C,00,
38306874,00000766,false,Rx,0,8,00,04,00,00,00,03,00,00,
38310223,00000201,false,Rx,0,8,00,FE,FE,00,00,00,30,00,
38314833,000000FA,false,Rx,0,8,00,00,1C,10,22,1C,1C,00,
38315858,000001BA,false,Rx,0,6,10,1C,C0,47,61,32,00,00,
38324843,000000FA,false,Rx,0,8,00,00,1C,10,22,1C,1C,00,
38326807,00000386,false,Rx,0,6,02,7E,61,13,92,00,00,00,
38330292,00000201,false,Rx,0,8,00,FE,FE,00,00,00,31,00,
38331287,00000101,false,Rx,0,8,00,00,00,00,00,00,8B,00,
38334828,000000FA,false,Rx,0,8,00,00,1C,10,22,1C,1C,00,
38335858,000001BA,false,Rx,0,6,10,1C,C0,47,61,32,00,00,
38339124,0000077A,false,Rx,0,8,5B,00,5D,20,1C,00,00,FF,
38340656,0000049A,false,Rx,0,7,00,AE,8D,AE,82,CF,8F,00,
38341655,00000102,false,Rx,0,3,00,00,00,00,00,00,00,00,
38345152,000000FA,false,Rx,0,8,00,00,1C,10,22,1C,1C,00,
38350192,00000201,false,Rx,0,8,00,FE,FE,00,00,00,32,00,
38354769,000000FA,false,Rx,0,8,00,00,1C,10,22,1C,1C,00,
38355790,000001BA,false,Rx,0,6,10,1C,C0,47,61,32,00,00,
38364905,000000FA,false,Rx,0,8,00,00,1C,10,22,1C,1C,00,
38365912,00000711,false,Rx,0,8,04,03,DE,4B,06,70,00,80,
38370170,00000741,false,Rx,0,6,00,00,00,00,1A,06,00,00,
38371165,00000201,false,Rx,0,8,00,FE,FE,00,00,00,33,00,
38371165,00000101,false,Rx,0,8,00,00,00,00,00,00,8B,00,
38374761,000000FA,false,Rx,0,8,00,00,1C,10,22,1C,1C,00,
38375786,000001BA,false,Rx,0,6,10,1C,C0,47,61,32,00,00,
38381096,00000102,false,Rx,0,3,00,00,00,00,00,00,00,00,
38384842,000000FA,false,Rx,0,8,00,00,1C,10,22,1C,1C,00,
38390320,00000201,false,Rx,0,8,00,FE,FE,00,00,00,34,00,
38395184,000000FA,false,Rx,0,8,00,00,1C,10,22,1C,1C,00,
38396207,000001BA,false,Rx,0,6,10,1C,C0,47,61,32,00,00,
38404913,000000FA,false,Rx,0,8,00,00,1C,10,22,1C,1C,00,
38406995,00000766,false,Rx,0,8,00,04,00,00,00,03,00,00,
38407984,0000069F,false,Rx,0,4,89,55,10,0F,00,00,00,00,
38411013,00000201,false,Rx,0,8,00,FE,FE,00,00,00,35,00,
38411014,00000101,false,Rx,0,8,00,00,00,00,00,00,8B,00,
38414760,000000FA,false,Rx,0,8,00,00,1C,10,22,1C,1C,00,
38415766,000001BA,false,Rx,0,6,10,1C,C0,47,61,32,00,00,
38422356,00000102,false,Rx,0,3,00,00,00,00,00,00,00,00,
38424730,000000FA,false,Rx,0,8,00,00,1C,10,22,1C,1C,00,
38427091,00000386,false,Rx,0,6,02,7E,61,13,92,00,00,00,
38430388,00000201,false,Rx,0,8,00,FE,FE,00,00,00,36,00,
38434771,000000FA,false,Rx,0,8,00,00,1C,10,22,1C,1C,00,
38435786,000001BA,false,Rx,0,6,10,1C,C0,47,61,32,00,00,
38439117,0000077A,false,Rx,0,8,5B,00,5D,20,1C,00,00,FF,
38440659,0000049A,false,Rx,0,7,00,AE,8D,AE,82,CF,8F,00,
38445197,000000FA,false,Rx,0,8,00,00,1C,10,22,1C,1C,00,
38450425,00000201,false,Rx,0,8,00,FE,FE,00,00,00,37,00,
38451271,00000101,false,Rx,0,8,00,00,00,00,00,00,8B,00,
38454713,000000FA,false,Rx,0,8,00,00,1C,10,22,1C,1C,00,
38455741,000001BA,false,Rx,0,6,10,1C,C0,47,61,32,00,00,
